11:06:36.804 -> Entering Configuration Mode Successful!
11:06:36.848 -> Setting Baudrate Successful!
11:06:36.848 -> MCP2515 Initialized Successfully!
11:06:36.848 -> MCP2515 Library Receive Example...
11:06:43.343 -> Standard ID: 0x453       DLC: 8  Data: 0xFE 0x13 0x3F 0xFF 0xFF 0xFF 0xFF 0xFF
11:06:43.343 -> Standard ID: 0x012       DLC: 6  Data: 0x00 0x00 0x00 0x00 0x00 0x00
11:06:43.343 -> Standard ID: 0x325       DLC: 6  Data: 0x01 0x00 0x00 0x00 0x00 0x00
11:06:43.343 -> Standard ID: 0x450       DLC: 8  Data: 0xFE 0x10 0x3F 0xFF 0xFF 0xFF 0xFF 0xFF
11:06:43.343 -> Standard ID: 0x315       DLC: 8  Data: 0x5C 0x00 0x00 0x00 0x38 0x00 0x00 0x00
11:06:43.343 -> Standard ID: 0x425       DLC: 8  Data: 0x00 0x00 0x02 0x00 0x00 0x00 0x00 0x00
11:06:43.343 -> Standard ID: 0x311       DLC: 8  Data: 0x00 0x76 0xBC 0x00 0x00 0x78 0x00 0x00
11:06:43.343 -> Standard ID: 0x424       DLC: 8  Data: 0x00 0x00 0x00 0x01 0xBA 0x9C 0x00 0x00
11:06:43.343 -> Standard ID: 0x305       DLC: 8  Data: 0x00 0x00 0x00 0x00 0x00 0x00 0x00 0x00
11:06:43.343 -> Standard ID: 0x152       DLC: 8  Data: 0xFF 0xFF 0xFF 0xFF 0x00 0x00 0x00 0x00
11:06:43.343 -> Standard ID: 0x6FF       DLC: 8  Data: 0x41 0x6A 0x06 0x94 0x60 0x00 0x00 0x00
11:06:43.343 -> Standard ID: 0x6FD       DLC: 8  Data: 0x01 0x8F 0x00 0x40 0x50 0x44 0x80 0x10
11:06:43.343 -> Standard ID: 0x1C2       DLC: 8  Data: 0x00 0x44 0x05 0x00 0x00 0x00 0x00 0x00
11:06:43.343 -> Standard ID: 0x6FB       DLC: 8  Data: 0x01 0x41 0x0C 0x04 0x81 0x00 0x11 0x80
11:06:43.343 -> Standard ID: 0x5FE       DLC: 8  Data: 0x41 0x12 0x15 0x11 0x01 0x60 0x06 0xC3
11:06:43.343 -> Standard ID: 0x315       DLC: 8  Data: 0x2D 0x00 0x00 0x00 0x38 0x00 0x00 0x00
11:06:43.343 -> Standard ID: 0x6F3       DLC: 8  Data: 0x01 0x00 0x00 0x00 0x00 0x00 0x00 0x09
11:06:43.343 -> Standard ID: 0x6F0       DLC: 8  Data: 0x25 0x05 0x8A 0x00 0x00 0x00 0x60 0x80
11:06:43.343 -> Standard ID: 0x1D1       DLC: 8  Data: 0x01 0x01 0x00 0x00 0x61 0x00 0x0A 0x04
11:06:43.343 -> Standard ID: 0x424       DLC: 8  Data: 0x00 0x00 0x00 0x01 0xBA 0x9C 0x00 0x00
11:06:43.343 -> Standard ID: 0x017       DLC: 4  Data: 0x00 0x00 0x00 0x01
11:06:43.343 -> Standard ID: 0x311       DLC: 8  Data: 0x00 0x76 0xBC 0x00 0x00 0x78 0x00 0x00
11:06:43.343 -> Standard ID: 0x315       DLC: 8  Data: 0x35 0x00 0x00 0x00 0x38 0x00 0x00 0x00
11:06:43.343 -> Standard ID: 0x425       DLC: 8  Data: 0x00 0x00 0x02 0x00 0x00 0x00 0x00 0x00
11:06:43.343 -> Standard ID: 0x315       DLC: 8  Data: 0x39 0x00 0x00 0x00 0x00 0x00 0x00 0x00
11:06:43.343 -> Standard ID: 0x459       DLC: 8  Data: 0xFE 0x19 0x3F 0xFF 0xFF 0xFF 0xFF 0xFF
11:06:43.343 -> Standard ID: 0x017       DLC: 4  Data: 0x00 0x00 0x00 0x01
11:06:43.343 -> Standard ID: 0x315       DLC: 8  Data: 0x7D 0x00 0x00 0x00 0x00 0x00 0x00 0x00
11:06:43.343 -> Standard ID: 0x425       DLC: 8  Data: 0x00 0x00 0x02 0x00 0x00 0x00 0x00 0x00
11:06:43.343 -> Standard ID: 0x45A       DLC: 8  Data: 0xFD 0x1B 0x3F 0xFF 0xFF 0xFF 0xFF 0xFF
11:06:43.343 -> Standard ID: 0x017       DLC: 4  Data: 0x00 0x00 0x08 0x01
11:06:43.343 -> Standard ID: 0x424       DLC: 8  Data: 0x00 0x00 0x00 0x01 0xBA 0x9C 0x00 0x00
11:06:43.343 -> Standard ID: 0x315       DLC: 8  Data: 0x41 0x00 0x00 0x00 0x00 0x00 0x00 0x00
11:06:43.343 -> Standard ID: 0x315       DLC: 8  Data: 0x05 0x00 0x00 0x00 0x00 0x00 0x00 0x00
11:06:43.343 -> Standard ID: 0x347       DLC: 8  Data: 0x00 0x00 0x00 0x17 0xA2 0x00 0x02 0x62
11:06:43.343 -> Standard ID: 0x425       DLC: 8  Data: 0x00 0x00 0x02 0x00 0x00 0x00 0x00 0x00
11:06:43.343 -> Standard ID: 0x315       DLC: 8  Data: 0x09 0x00 0x00 0x00 0x00 0x00 0x00 0x00
11:06:43.343 -> Standard ID: 0x424       DLC: 8  Data: 0x00 0x00 0x00 0x01 0xBA 0x9C 0x00 0x00
11:06:43.343 -> Standard ID: 0x154       DLC: 8  Data: 0xFF 0xFF 0xE1 0xFF 0xFF 0x04 0xA3 0x5F
11:06:43.343 -> Standard ID: 0x1D0       DLC: 8  Data: 0x00 0x11 0x00 0x53 0x00 0x5E 0x06 0x00
11:06:43.343 -> Standard ID: 0x315       DLC: 8  Data: 0x4D 0x00 0x00 0x00 0x00 0x00 0x00 0x00
11:06:43.343 -> Standard ID: 0x425       DLC: 8  Data: 0x00 0x00 0x02 0x00 0x00 0x00 0x00 0x00
11:06:43.343 -> Standard ID: 0x315       DLC: 8  Data: 0x11 0x00 0x00 0x00 0x00 0x00 0x00 0x00
11:06:43.343 -> Standard ID: 0x424       DLC: 8  Data: 0x00 0x00 0x00 0x01 0xBA 0x9C 0x00 0x00
11:06:43.343 -> Standard ID: 0x450       DLC: 8  Data: 0xFE 0x11 0x3F 0xFF 0xFF 0xFF 0xFF 0xFF
11:06:43.343 -> Standard ID: 0x315       DLC: 8  Data: 0x55 0x00 0x00 0x00 0x00 0x00 0x00 0x00
11:06:43.343 -> Standard ID: 0x425       DLC: 8  Data: 0x00 0x00 0x02 0x00 0x00 0x00 0x00 0x00
11:06:43.343 -> Standard ID: 0x311       DLC: 8  Data: 0x00 0x76 0xBC 0x00 0x00 0x78 0x00 0x00
11:06:43.343 -> Standard ID: 0x315       DLC: 8  Data: 0x59 0x00 0x00 0x00 0x00 0x00 0x00 0x00
11:06:43.343 -> Standard ID: 0x347       DLC: 8  Data: 0x00 0x00 0x00 0x17 0xA2 0x00 0x02 0x62
11:06:43.343 -> Standard ID: 0x311       DLC: 8  Data: 0x00 0x76 0xBC 0x00 0x00 0x78 0x00 0x00
11:06:43.710 -> Standard ID: 0x315       DLC: 8  Data: 0x1D 0x00 0x00 0x00 0x00 0x00 0x00 0x00
11:06:43.710 -> Standard ID: 0x154       DLC: 8  Data: 0xFF 0xFF 0xE1 0xFF 0xFF 0x04 0xA3 0x5F
11:06:43.710 -> Standard ID: 0x425       DLC: 8  Data: 0x00 0x00 0x02 0x00 0x00 0x00 0x00 0x00
11:06:43.710 -> Standard ID: 0x315       DLC: 8  Data: 0x21 0x00 0x00 0x00 0x00 0x00 0x00 0x00
11:06:43.710 -> Standard ID: 0x6FF       DLC: 8  Data: 0x41 0x6A 0x06 0x94 0x60 0x00 0x00 0x00
11:06:43.710 -> Standard ID: 0x6FD       DLC: 8  Data: 0x01 0x8F 0x00 0x40 0x50 0x44 0x80 0x10
11:06:43.710 -> Standard ID: 0x453       DLC: 8  Data: 0xFD 0x19 0x3F 0xFF 0xFF 0xFF 0xFF 0xFF
11:06:43.710 -> Standard ID: 0x6FB       DLC: 8  Data: 0x01 0x41 0x0C 0x04 0x81 0x00 0x11 0x80
11:06:43.710 -> Standard ID: 0x5FE       DLC: 8  Data: 0x41 0x12 0x15 0x11 0x01 0x60 0x06 0xC3
11:06:43.710 -> Standard ID: 0x315       DLC: 8  Data: 0x69 0x00 0x00 0x00 0x00 0x00 0x00 0x00
11:06:43.710 -> Standard ID: 0x424       DLC: 8  Data: 0x00 0x00 0x00 0x01 0xBA 0x9C 0x00 0x00
11:06:43.710 -> Standard ID: 0x424       DLC: 8  Data: 0x00 0x00 0x00 0x01 0xBA 0x9C 0x00 0x00
11:06:43.710 -> Standard ID: 0x315       DLC: 8  Data: 0x2D 0x00 0x00 0x00 0x00 0x00 0x00 0x00
11:06:43.710 -> Standard ID: 0x425       DLC: 8  Data: 0x00 0x00 0x02 0x00 0x00 0x00 0x00 0x00
11:06:43.710 -> Standard ID: 0x311       DLC: 8  Data: 0x00 0x76 0xBC 0x00 0x00 0x78 0x00 0x00
11:06:43.710 -> Standard ID: 0x315       DLC: 8  Data: 0x71 0x00 0x00 0x00 0x00 0x00 0x00 0x00
11:06:43.710 -> Standard ID: 0x154       DLC: 8  Data: 0xFF 0xFF 0xE1 0xFF 0xFF 0x04 0xA3 0x5F
11:06:43.710 -> Standard ID: 0x1D0       DLC: 8  Data: 0x00 0x6F 0x0E 0x7B 0x06 0x00 0x00 0x00
11:06:43.710 -> Standard ID: 0x315       DLC: 8  Data: 0x35 0x00 0x00 0x00 0x00 0x00 0x00 0x00
11:06:43.710 -> Standard ID: 0x459       DLC: 8  Data: 0xFD 0x1A 0xBF 0xFF 0xFF 0xFF 0xFF 0xFF
11:06:43.710 -> Standard ID: 0x425       DLC: 8  Data: 0x00 0x00 0x02 0x00 0x00 0x00 0x00 0x00
11:06:43.710 -> Standard ID: 0x424       DLC: 8  Data: 0x00 0x00 0x00 0x01 0xBA 0x9C 0x00 0x00
11:06:43.710 -> Standard ID: 0x347       DLC: 8  Data: 0x00 0x00 0x00 0x17 0xA2 0x00 0x02 0x62
11:06:43.710 -> Standard ID: 0x315       DLC: 8  Data: 0x7D 0x00 0x00 0x00 0x00 0x00 0x00 0x00
11:06:43.710 -> Standard ID: 0x425       DLC: 8  Data: 0x00 0x00 0x02 0x00 0x00 0x00 0x00 0x00
11:06:43.710 -> Standard ID: 0x315       DLC: 8  Data: 0x41 0x00 0x00 0x00 0x00 0x00 0x00 0x00
11:06:43.710 -> Standard ID: 0x424       DLC: 8  Data: 0x00 0x00 0x00 0x01 0xBA 0x9C 0x00 0x00
11:06:43.710 -> Standard ID: 0x347       DLC: 8  Data: 0x00 0x00 0x00 0x17 0xA2 0x00 0x02 0x62
11:06:43.710 -> Standard ID: 0x311       DLC: 8  Data: 0x00 0x76 0xBC 0x00 0x00 0x78 0x00 0x00
11:06:43.710 -> Standard ID: 0x315       DLC: 8  Data: 0x05 0x00 0x00 0x00 0x00 0x00 0x00 0x00
11:06:43.710 -> Standard ID: 0x154       DLC: 8  Data: 0xFF 0xFF 0xE1 0xFF 0xFF 0x04 0xA3 0x5F
11:06:43.710 -> Standard ID: 0x1D0       DLC: 8  Data: 0x00 0x11 0x00 0x53 0x00 0x5E 0x06 0x00
11:06:43.710 -> Standard ID: 0x425       DLC: 8  Data: 0x00 0x00 0x02 0x00 0x00 0x00 0x00 0x00
11:06:43.710 -> Standard ID: 0x424       DLC: 8  Data: 0x00 0x00 0x00 0x01 0xBA 0x9C 0x00 0x00
11:06:43.710 -> Standard ID: 0x306       DLC: 8  Data: 0x00 0x00 0x00 0x00 0x00 0x00 0x00 0x00
11:06:43.710 -> Standard ID: 0x315       DLC: 8  Data: 0x4D 0x00 0x00 0x00 0x00 0x00 0x00 0x00
11:06:43.710 -> Standard ID: 0x425       DLC: 8  Data: 0x00 0x00 0x02 0x00 0x00 0x00 0x00 0x00
11:06:43.710 -> Standard ID: 0x315       DLC: 8  Data: 0x11 0x00 0x00 0x00 0x00 0x00 0x00 0x00
11:06:43.710 -> Standard ID: 0x424       DLC: 8  Data: 0x00 0x00 0x00 0x01 0xBA 0x9C 0x00 0x00
11:06:43.710 -> Standard ID: 0x6F0       DLC: 8  Data: 0x25 0x05 0x8A 0x00 0x00 0x00 0x60 0x80
11:06:43.710 -> Standard ID: 0x6F3       DLC: 8  Data: 0x01 0x00 0x00 0x00 0x00 0x00 0x00 0x09
11:06:43.710 -> Standard ID: 0x1D1       DLC: 8  Data: 0x01 0x01 0x00 0x00 0x61 0x00 0x0A 0x04
11:06:43.710 -> Standard ID: 0x347       DLC: 8  Data: 0x00 0x00 0x00 0x17 0xA2 0x00 0x02 0x62
11:06:43.710 -> Standard ID: 0x425       DLC: 8  Data: 0x00 0x00 0x02 0x00 0x00 0x00 0x00 0x00
11:06:43.710 -> Standard ID: 0x311       DLC: 8  Data: 0x00 0x76 0xBC 0x00 0x00 0x78 0x00 0x00
11:06:43.710 -> Standard ID: 0x424       DLC: 8  Data: 0x00 0x00 0x00 0x01 0xBA 0x9C 0x00 0x00
11:06:43.710 -> Standard ID: 0x1D0       DLC: 8  Data: 0x00 0x1F 0x1E 0x60 0x0E 0x64 0x0E 0x00
11:06:43.710 -> Standard ID: 0x315       DLC: 8  Data: 0x1D 0x00 0x00 0x00 0x00 0x00 0x00 0x00
11:06:43.710 -> Standard ID: 0x6FF       DLC: 8  Data: 0x41 0x6A 0x06 0x94 0x60 0x00 0x00 0x00
11:06:43.710 -> Standard ID: 0x6FD       DLC: 8  Data: 0x01 0x8F 0x00 0x40 0x50 0x44 0x80 0x10
11:06:44.042 -> Standard ID: 0x315       DLC: 8  Data: 0x21 0x00 0x00 0x00 0x00 0x00 0x00 0x00
11:06:44.042 -> Standard ID: 0x6FB       DLC: 8  Data: 0x01 0x41 0x0C 0x04 0x81 0x00 0x11 0x80
11:06:44.042 -> Standard ID: 0x5FE       DLC: 8  Data: 0x41 0x12 0x15 0x11 0x01 0x60 0x06 0xC3
11:06:44.042 -> Standard ID: 0x315       DLC: 8  Data: 0x65 0x00 0x00 0x00 0x00 0x00 0x00 0x00
11:06:44.042 -> Standard ID: 0x425       DLC: 8  Data: 0x00 0x00 0x02 0x00 0x00 0x00 0x00 0x00
11:06:44.042 -> Standard ID: 0x315       DLC: 8  Data: 0x55 0x00 0x00 0x00 0x00 0x00 0x00 0x00
11:06:44.042 -> Standard ID: 0x315       DLC: 8  Data: 0x69 0x00 0x00 0x00 0x00 0x00 0x00 0x00
11:06:44.042 -> Standard ID: 0x347       DLC: 8  Data: 0x00 0x00 0x00 0x17 0xA2 0x00 0x02 0x62
11:06:44.042 -> Standard ID: 0x311       DLC: 8  Data: 0x00 0x76 0xBC 0x00 0x00 0x78 0x00 0x00
11:06:44.042 -> Standard ID: 0x450       DLC: 8  Data: 0xFD 0x11 0x3F 0xFF 0xFF 0xFF 0xFF 0xFF
11:06:44.042 -> Standard ID: 0x154       DLC: 8  Data: 0xFF 0xFF 0xE1 0xFF 0xFF 0x04 0xA3 0x5F
11:06:44.042 -> Standard ID: 0x425       DLC: 8  Data: 0x00 0x00 0x02 0x00 0x00 0x00 0x00 0x00
11:06:44.042 -> Standard ID: 0x315       DLC: 8  Data: 0x71 0x00 0x00 0x00 0x00 0x00 0x00 0x00
11:06:44.042 -> Standard ID: 0x424       DLC: 8  Data: 0x00 0x00 0x00 0x01 0xBA 0x9C 0x00 0x00
11:06:44.042 -> Standard ID: 0x315       DLC: 8  Data: 0x35 0x00 0x00 0x00 0x00 0x00 0x00 0x00
11:06:44.042 -> Standard ID: 0x424       DLC: 8  Data: 0x00 0x00 0x00 0x01 0xBA 0x9C 0x00 0x00
11:06:44.042 -> Standard ID: 0x425       DLC: 8  Data: 0x00 0x00 0x02 0x00 0x00 0x00 0x00 0x00
11:06:44.042 -> Standard ID: 0x315       DLC: 8  Data: 0x39 0x00 0x00 0x00 0x00 0x00 0x00 0x00
11:06:44.042 -> Standard ID: 0x424       DLC: 8  Data: 0x00 0x00 0x00 0x01 0xBA 0x9C 0x00 0x00
11:06:44.042 -> Standard ID: 0x315       DLC: 8  Data: 0x7D 0x00 0x00 0x00 0x00 0x00 0x00 0x00
11:06:44.042 -> Standard ID: 0x347       DLC: 8  Data: 0x00 0x00 0x00 0x17 0xA2 0x00 0x02 0x62
11:06:44.042 -> Standard ID: 0x451       DLC: 8  Data: 0xFD 0x13 0xBF 0xFF 0xFF 0xFF 0xFF 0xFF
11:06:44.042 -> Standard ID: 0x425       DLC: 8  Data: 0x00 0x00 0x02 0x00 0x00 0x00 0x00 0x00
11:06:44.042 -> Standard ID: 0x311       DLC: 8  Data: 0x00 0x76 0xBC 0x00 0x00 0x78 0x00 0x00
11:06:44.042 -> Standard ID: 0x424       DLC: 8  Data: 0x00 0x00 0x00 0x01 0xBA 0x9C 0x00 0x00
11:06:44.042 -> Standard ID: 0x154       DLC: 8  Data: 0xFF 0xFF 0xE1 0xFF 0xFF 0x04 0xA3 0x5F
11:06:44.042 -> Standard ID: 0x1D0       DLC: 8  Data: 0x00 0x11 0x00 0x53 0x00 0x5E 0x06 0x00
11:06:44.042 -> Standard ID: 0x315       DLC: 8  Data: 0x05 0x00 0x00 0x00 0x00 0x00 0x00 0x00
11:06:44.042 -> Standard ID: 0x425       DLC: 8  Data: 0x00 0x00 0x02 0x00 0x00 0x00 0x00 0x00
11:06:44.042 -> Standard ID: 0x315       DLC: 8  Data: 0x09 0x00 0x00 0x00 0x00 0x00 0x00 0x00
11:06:44.042 -> Standard ID: 0x424       DLC: 8  Data: 0x00 0x00 0x00 0x01 0xBA 0x9C 0x00 0x00
11:06:44.042 -> Standard ID: 0x315       DLC: 8  Data: 0x41 0x00 0x00 0x00 0x00 0x00 0x00 0x00
11:06:44.042 -> Standard ID: 0x315       DLC: 8  Data: 0x4D 0x00 0x00 0x00 0x00 0x00 0x00 0x00
11:06:44.042 -> Standard ID: 0x425       DLC: 8  Data: 0x00 0x00 0x02 0x00 0x00 0x00 0x00 0x00
11:06:44.042 -> Standard ID: 0x453       DLC: 8  Data: 0xFD 0x19 0x3F 0xFF 0xFF 0xFF 0xFF 0xFF
11:06:44.042 -> Standard ID: 0x315       DLC: 8  Data: 0x11 0x00 0x00 0x00 0x00 0x00 0x00 0x00
11:06:44.042 -> Standard ID: 0x347       DLC: 8  Data: 0x00 0x00 0x00 0x17 0xA2 0x00 0x02 0x62
11:06:44.042 -> Standard ID: 0x311       DLC: 8  Data: 0x00 0x76 0xBC 0x00 0x00 0x78 0x00 0x00
11:06:44.042 -> Standard ID: 0x315       DLC: 8  Data: 0x55 0x00 0x00 0x00 0x00 0x00 0x00 0x00
11:06:44.042 -> Standard ID: 0x154       DLC: 8  Data: 0xFF 0xFF 0xE1 0xFF 0xFF 0x04 0xA3 0x5F
11:06:44.042 -> Standard ID: 0x425       DLC: 8  Data: 0x00 0x00 0x02 0x00 0x00 0x00 0x00 0x00
11:06:44.042 -> Standard ID: 0x315       DLC: 8  Data: 0x59 0x00 0x00 0x00 0x00 0x00 0x00 0x00
11:06:44.042 -> Standard ID: 0x6FF       DLC: 8  Data: 0x41 0x6A 0x06 0x94 0x60 0x00 0x00 0x00
11:06:44.042 -> Standard ID: 0x6FD       DLC: 8  Data: 0x01 0x8F 0x00 0x40 0x50 0x44 0x80 0x10
11:06:44.042 -> Standard ID: 0x315       DLC: 8  Data: 0x1D 0x00 0x00 0x00 0x00 0x00 0x00 0x00
11:06:44.042 -> Standard ID: 0x6FB       DLC: 8  Data: 0x01 0x41 0x0C 0x04 0x81 0x00 0x11 0x80
11:06:44.042 -> Standard ID: 0x5FE       DLC: 8  Data: 0x41 0x12 0x15 0x11 0x01 0x60 0x06 0xC3
11:06:44.042 -> Standard ID: 0x315       DLC: 8  Data: 0x21 0x00 0x00 0x00 0x00 0x00 0x00 0x00
11:06:44.042 -> Standard ID: 0x459       DLC: 8  Data: 0xFD 0x1A 0xBF 0xFF 0xFF 0xFF 0xFF 0xFF
11:06:44.376 -> Standard ID: 0x325       DLC: 6  Data: 0x01 0x00 0x00 0x00 0x00 0x00
11:06:44.376 -> Standard ID: 0x315       DLC: 8  Data: 0x65 0x00 0x00 0x00 0x00 0x00 0x00 0x00
11:06:44.376 -> Standard ID: 0x347       DLC: 8  Data: 0x00 0x00 0x00 0x17 0xA2 0x00 0x02 0x62
11:06:44.376 -> Standard ID: 0x425       DLC: 8  Data: 0x00 0x00 0x02 0x00 0x00 0x00 0x00 0x00
11:06:44.376 -> Standard ID: 0x311       DLC: 8  Data: 0x00 0x76 0xBC 0x00 0x00 0x78 0x00 0x00
11:06:44.376 -> Standard ID: 0x424       DLC: 8  Data: 0x00 0x00 0x00 0x01 0xBA 0x9C 0x00 0x00
11:06:44.376 -> Standard ID: 0x305       DLC: 8  Data: 0x00 0x00 0x00 0x00 0x00 0x00 0x00 0x00
11:06:44.376 -> Standard ID: 0x152       DLC: 8  Data: 0xFF 0xFF 0xFF 0xFF 0x00 0x00 0x00 0x00
11:06:44.376 -> Standard ID: 0x315       DLC: 8  Data: 0x2D 0x00 0x00 0x00 0x00 0x00 0x00 0x00
11:06:44.376 -> Standard ID: 0x425       DLC: 8  Data: 0x00 0x00 0x02 0x00 0x00 0x00 0x00 0x00
11:06:44.376 -> Standard ID: 0x315       DLC: 8  Data: 0x71 0x00 0x00 0x00 0x00 0x00 0x00 0x00
11:06:44.376 -> Standard ID: 0x424       DLC: 8  Data: 0x00 0x00 0x00 0x01 0xBA 0x9C 0x00 0x00
11:06:44.376 -> Standard ID: 0x45A       DLC: 8  Data: 0xFD 0x1B 0x3F 0xFF 0xFF 0xFF 0xFF 0xFF
11:06:44.376 -> Standard ID: 0x315       DLC: 8  Data: 0x35 0x00 0x00 0x00 0x00 0x00 0x00 0x00
11:06:44.376 -> Standard ID: 0x6F3       DLC: 8  Data: 0x01 0x00 0x00 0x00 0x00 0x00 0x00 0x09
11:06:44.376 -> Standard ID: 0x6F0       DLC: 8  Data: 0x25 0x05 0x8A 0x00 0x00 0x00 0x60 0x80
11:06:44.376 -> Standard ID: 0x315       DLC: 8  Data: 0x39 0x00 0x00 0x00 0x00 0x00 0x00 0x00
11:06:44.376 -> Standard ID: 0x347       DLC: 8  Data: 0x00 0x00 0x00 0x17 0xA2 0x00 0x02 0x62
11:06:44.376 -> Standard ID: 0x1C2       DLC: 8  Data: 0x00 0x48 0x05 0x00 0x00 0x00 0x00 0x00
11:06:44.376 -> Standard ID: 0x315       DLC: 8  Data: 0x7D 0x00 0x00 0x00 0x00 0x00 0x00 0x00
11:06:44.376 -> Standard ID: 0x154       DLC: 8  Data: 0xFF 0xFF 0xE1 0xFF 0xFF 0x04 0xA3 0x5F
11:06:44.376 -> Standard ID: 0x425       DLC: 8  Data: 0x00 0x00 0x02 0x00 0x00 0x00 0x00 0x00
11:06:44.376 -> Standard ID: 0x424       DLC: 8  Data: 0x00 0x00 0x00 0x01 0xBA 0x9C 0x00 0x00
11:06:44.376 -> Standard ID: 0x424       DLC: 8  Data: 0x00 0x00 0x00 0x01 0xBA 0x9C 0x00 0x00
11:06:44.376 -> Standard ID: 0x315       DLC: 8  Data: 0x05 0x00 0x00 0x00 0x00 0x00 0x00 0x00
11:06:44.376 -> Standard ID: 0x45B       DLC: 8  Data: 0xFD 0x10 0x3F 0xFF 0xFF 0xFF 0xFF 0xFF
11:06:44.376 -> Standard ID: 0x425       DLC: 8  Data: 0x00 0x00 0x02 0x00 0x00 0x00 0x00 0x00
11:06:44.376 -> Standard ID: 0x315       DLC: 8  Data: 0x09 0x00 0x00 0x00 0x00 0x00 0x00 0x00
11:06:44.376 -> Standard ID: 0x424       DLC: 8  Data: 0x00 0x00 0x00 0x01 0xBA 0x9C 0x00 0x00
11:06:44.376 -> Standard ID: 0x315       DLC: 8  Data: 0x4D 0x00 0x00 0x00 0x00 0x00 0x00 0x00
11:06:44.376 -> Standard ID: 0x347       DLC: 8  Data: 0x00 0x00 0x00 0x17 0xA2 0x00 0x02 0x62
11:06:44.376 -> Standard ID: 0x425       DLC: 8  Data: 0x00 0x00 0x02 0x00 0x00 0x00 0x00 0x00
11:06:44.376 -> Standard ID: 0x311       DLC: 8  Data: 0x00 0x76 0xBC 0x00 0x00 0x78 0x00 0x00
11:06:44.376 -> Standard ID: 0x315       DLC: 8  Data: 0x11 0x00 0x00 0x00 0x00 0x00 0x00 0x00
11:06:44.376 -> Standard ID: 0x154       DLC: 8  Data: 0xFF 0xFF 0xE1 0xFF 0xFF 0x04 0xA3 0x5F
11:06:44.376 -> Standard ID: 0x1D0       DLC: 8  Data: 0x00 0x1F 0x1E 0x60 0x0E 0x64 0x0E 0x00
11:06:44.376 -> Standard ID: 0x315       DLC: 8  Data: 0x55 0x00 0x00 0x00 0x00 0x00 0x00 0x00
11:06:44.376 -> Standard ID: 0x6FF       DLC: 8  Data: 0x41 0x6A 0x06 0x94 0x60 0x00 0x00 0x00
11:06:44.376 -> Standard ID: 0x425       DLC: 8  Data: 0x00 0x00 0x02 0x00 0x00 0x00 0x00 0x00
11:06:44.376 -> Standard ID: 0x6FD       DLC: 8  Data: 0x01 0x8F 0x00 0x40 0x50 0x44 0x80 0x10
11:06:44.376 -> Standard ID: 0x6FB       DLC: 8  Data: 0x01 0x41 0x0C 0x04 0x81 0x00 0x11 0x80
11:06:44.376 -> Standard ID: 0x5FE       DLC: 8  Data: 0x41 0x12 0x15 0x11 0x01 0x60 0x06 0xC3
11:06:44.376 -> Standard ID: 0x315       DLC: 8  Data: 0x1D 0x00 0x00 0x00 0x00 0x00 0x00 0x00
11:06:44.376 -> Standard ID: 0x425       DLC: 8  Data: 0x00 0x00 0x02 0x00 0x00 0x00 0x00 0x00
11:06:44.376 -> Standard ID: 0x424       DLC: 8  Data: 0x00 0x00 0x00 0x01 0xBA 0x9C 0x00 0x00
11:06:44.376 -> Standard ID: 0x315       DLC: 8  Data: 0x21 0x00 0x00 0x00 0x00 0x00 0x00 0x00
11:06:44.376 -> Standard ID: 0x347       DLC: 8  Data: 0x00 0x00 0x00 0x17 0xA2 0x00 0x02 0x62
11:06:44.376 -> Standard ID: 0x311       DLC: 8  Data: 0x00 0x76 0xBC 0x00 0x00 0x78 0x00 0x00
11:06:44.376 -> Standard ID: 0x315       DLC: 8  Data: 0x65 0x00 0x00 0x00 0x00 0x00 0x00 0x00
11:06:44.376 -> Standard ID: 0x154       DLC: 8  Data: 0xFF 0xFF 0xE1 0xFF 0xFF 0x04 0xA3 0x5F
11:06:44.712 -> Standard ID: 0x425       DLC: 8  Data: 0x00 0x00 0x02 0x00 0x00 0x00 0x00 0x00
11:06:44.712 -> Standard ID: 0x315       DLC: 8  Data: 0x69 0x00 0x00 0x00 0x00 0x00 0x00 0x00
11:06:44.712 -> Standard ID: 0x424       DLC: 8  Data: 0x00 0x00 0x00 0x01 0xBA 0x9C 0x00 0x00
11:06:44.712 -> Standard ID: 0x451       DLC: 8  Data: 0xFD 0x13 0xBF 0xFF 0xFF 0xFF 0xFF 0xFF
11:06:44.712 -> Standard ID: 0x315       DLC: 8  Data: 0x2D 0x00 0x00 0x00 0x00 0x00 0x00 0x00
11:06:44.712 -> Standard ID: 0x425       DLC: 8  Data: 0x00 0x00 0x02 0x00 0x00 0x00 0x00 0x00
11:06:44.712 -> Standard ID: 0x424       DLC: 8  Data: 0x00 0x00 0x00 0x01 0xBA 0x9C 0x00 0x00
11:06:44.712 -> Standard ID: 0x315       DLC: 8  Data: 0x71 0x00 0x00 0x00 0x00 0x00 0x00 0x00
11:06:44.712 -> Standard ID: 0x424       DLC: 8  Data: 0x00 0x00 0x00 0x01 0xBA 0x9C 0x00 0x00
11:06:44.712 -> Standard ID: 0x315       DLC: 8  Data: 0x35 0x00 0x00 0x00 0x00 0x00 0x00 0x00
11:06:44.712 -> Standard ID: 0x347       DLC: 8  Data: 0x00 0x00 0x00 0x17 0xA2 0x00 0x02 0x62
11:06:44.712 -> Standard ID: 0x425       DLC: 8  Data: 0x00 0x00 0x02 0x00 0x00 0x00 0x00 0x00
11:06:44.712 -> Standard ID: 0x311       DLC: 8  Data: 0x00 0x76 0xBC 0x00 0x00 0x78 0x00 0x00
11:06:44.712 -> Standard ID: 0x315       DLC: 8  Data: 0x39 0x00 0x00 0x00 0x00 0x00 0x00 0x00
11:06:44.712 -> Standard ID: 0x154       DLC: 8  Data: 0xFF 0xFF 0xE1 0xFF 0xFF 0x04 0xA3 0x5F
11:06:44.712 -> Standard ID: 0x1D0       DLC: 8  Data: 0x00 0x11 0x00 0x53 0x00 0x5E 0x06 0x00
11:06:44.712 -> Standard ID: 0x315       DLC: 8  Data: 0x7D 0x00 0x00 0x00 0x00 0x00 0x00 0x00
11:06:44.712 -> Standard ID: 0x017       DLC: 4  Data: 0x20 0x00 0x08 0x01
11:06:44.712 -> Standard ID: 0x425       DLC: 8  Data: 0x00 0x00 0x02 0x00 0x00 0x00 0x00 0x00
11:06:44.712 -> Standard ID: 0x315       DLC: 8  Data: 0x41 0x00 0x00 0x00 0x00 0x00 0x00 0x00
11:06:44.712 -> Standard ID: 0x424       DLC: 8  Data: 0x00 0x00 0x00 0x01 0xBA 0x9C 0x00 0x00
11:06:44.712 -> Standard ID: 0x347       DLC: 8  Data: 0x09 0x00 0x00 0x17 0xA2 0x00 0x02 0x62
11:06:44.712 -> Standard ID: 0x454       DLC: 8  Data: 0xFE 0x14 0x3F 0xFF 0xFF 0xFF 0xFF 0xFF
11:06:44.712 -> Standard ID: 0x185       DLC: 8  Data: 0x00 0x00 0xFF 0xFF 0x00 0x00 0x00 0x00
11:06:44.712 -> Standard ID: 0x425       DLC: 8  Data: 0x00 0x00 0x02 0x00 0x00 0x00 0x00 0x00
11:06:44.712 -> Standard ID: 0x315       DLC: 8  Data: 0x09 0x00 0x00 0x00 0x00 0x00 0x00 0x00
11:06:44.712 -> Standard ID: 0x236       DLC: 8  Data: 0x0F 0xF2 0x3F 0xFF 0x00 0x00 0x00 0xE3
11:06:44.712 -> Standard ID: 0x347       DLC: 8  Data: 0x09 0x00 0x00 0x17 0xA2 0x00 0x02 0x62
11:06:44.712 -> Standard ID: 0x315       DLC: 8  Data: 0x4D 0x00 0x00 0x00 0x00 0x00 0x00 0x00
11:06:44.712 -> Standard ID: 0x154       DLC: 8  Data: 0x63 0x40 0xE1 0xFF 0xFF 0x04 0xA3 0x5F
11:06:44.712 -> Standard ID: 0x7BC       DLC: 8  Data: 0x00 0x00 0x00 0x00 0x00 0x00 0x00 0x00
11:06:44.712 -> Standard ID: 0x424       DLC: 8  Data: 0x98 0x00 0x00 0x01 0xBA 0x9C 0x00 0x00
11:06:44.712 -> Standard ID: 0x236       DLC: 8  Data: 0x0F 0xF2 0x3F 0xFF 0x40 0x00 0x00 0x83
11:06:44.712 -> Standard ID: 0x365       DLC: 8  Data: 0x00 0xFF 0xFF 0x04 0xE1 0x00 0x00 0xC8
11:06:44.712 -> Standard ID: 0x6FB       DLC: 8  Data: 0x01 0x41 0x0C 0x04 0x81 0x00 0x11 0x80
11:06:44.712 -> Standard ID: 0x236       DLC: 8  Data: 0x0F 0xF2 0x3F 0xFF 0x60 0x00 0x00 0xB3
11:06:44.712 -> Standard ID: 0x520       DLC: 8  Data: 0x00 0x00 0x00 0x00 0x00 0x00 0x00 0x00
11:06:44.712 -> Standard ID: 0x6F3       DLC: 8  Data: 0x01 0x00 0x00 0x00 0x00 0x00 0x00 0x09
11:06:44.712 -> Standard ID: 0x330       DLC: 8  Data: 0x1C 0x00 0x00 0x00 0x00 0x00 0x00 0xFF
11:06:44.712 -> Standard ID: 0x365       DLC: 8  Data: 0x00 0xFF 0xFF 0x05 0xE1 0x00 0x00 0xC8
11:06:44.712 -> Standard ID: 0x315       DLC: 8  Data: 0x1D 0x00 0x00 0x00 0x00 0x00 0x00 0x00
11:06:44.712 -> Standard ID: 0x255       DLC: 8  Data: 0x3F 0xFF 0x3F 0xFF 0x3F 0xFF 0xFF 0xFF
11:06:44.712 -> Standard ID: 0x338       DLC: 8  Data: 0x00 0x00 0x00 0x00 0x00 0x00 0x00 0x00
11:06:44.712 -> Standard ID: 0x424       DLC: 8  Data: 0x98 0x00 0x00 0x01 0xBA 0x9C 0x00 0x00
11:06:44.712 -> Standard ID: 0x308       DLC: 8  Data: 0x44 0x00 0x00 0x06 0x04 0x00 0x00 0x00
11:06:44.712 -> Standard ID: 0x365       DLC: 8  Data: 0x00 0xFF 0xFF 0x05 0xE1 0x00 0x00 0xC8
11:06:44.712 -> Standard ID: 0x330       DLC: 8  Data: 0x04 0x00 0x00 0x00 0x00 0x00 0x00 0xFF
11:06:44.712 -> Standard ID: 0x312       DLC: 8  Data: 0x48 0x42 0x08 0x42 0x08 0x42 0x07 0xA7
11:06:44.712 -> Standard ID: 0x236       DLC: 8  Data: 0x0F 0xF2 0x10 0x00 0xF0 0x00 0x00 0x70
11:06:44.712 -> Standard ID: 0x218       DLC: 8  Data: 0xCA 0x2C 0xDD 0x40 0x00 0x88 0xFF 0x00
11:06:45.063 -> Standard ID: 0x6FA       DLC: 8  Data: 0x01 0x31 0x41 0x2D 0x30 0x33 0x38 0x32
11:06:45.063 -> Standard ID: 0x236       DLC: 8  Data: 0x0F 0xF2 0x10 0x00 0x10 0x00 0x00 0xE0
11:06:45.063 -> Standard ID: 0x22B       DLC: 8  Data: 0x00 0x00 0x00 0x1F 0x00 0x00 0x00 0x00
11:06:45.063 -> Standard ID: 0x425       DLC: 8  Data: 0x00 0x00 0x02 0x00 0x00 0x00 0x00 0x00
11:06:45.063 -> Standard ID: 0x2F1       DLC: 8  Data: 0x00 0x00 0x00 0x00 0x00 0x00 0x00 0x00
11:06:45.063 -> Standard ID: 0x300       DLC: 8  Data: 0x00 0x80 0x00 0x00 0x1F 0xFF 0xFF 0xFF
11:06:45.063 -> Standard ID: 0x7BC       DLC: 8  Data: 0x09 0x00 0x00 0x00 0x00 0x00 0x00 0x00
11:06:45.063 -> Standard ID: 0x311       DLC: 8  Data: 0x00 0x76 0xBC 0x00 0x00 0x78 0x00 0x00
11:06:45.063 -> Standard ID: 0x520       DLC: 8  Data: 0x00 0x00 0x00 0x00 0x00 0x00 0x00 0x00
11:06:45.063 -> Standard ID: 0x425       DLC: 8  Data: 0x00 0x00 0x02 0x00 0x00 0x00 0x00 0x00
11:06:45.063 -> Standard ID: 0x2F1       DLC: 8  Data: 0x00 0x80 0x14 0x8F 0x00 0x00 0x00 0x00
11:06:45.063 -> Standard ID: 0x418       DLC: 8  Data: 0x50 0xFF 0x45 0x10 0x00 0x00 0x01 0x00
11:06:45.063 -> Standard ID: 0x200       DLC: 8  Data: 0x1E 0xFF 0x00 0x00 0x00 0x00 0x00 0x00
11:06:45.063 -> Standard ID: 0x210       DLC: 8  Data: 0x00 0x00 0x00 0x80 0xC0 0x00 0x00 0xFF
11:06:45.063 -> Standard ID: 0x418       DLC: 8  Data: 0x50 0xFF 0x45 0x10 0x00 0x00 0x01 0x00
11:06:45.063 -> Standard ID: 0x7BC       DLC: 8  Data: 0x0C 0x00 0x00 0x00 0x00 0x00 0x00 0x00
11:06:45.063 -> Standard ID: 0x215       DLC: 8  Data: 0x00 0x00 0x00 0x00 0x00 0x00 0x04 0x00
11:06:45.063 -> Standard ID: 0x418       DLC: 8  Data: 0x50 0xFF 0x45 0x10 0x00 0x18 0x01 0x00
11:06:45.063 -> Standard ID: 0x7BC       DLC: 8  Data: 0x0D 0x00 0x00 0x00 0x00 0x00 0x00 0x00
11:06:45.063 -> Standard ID: 0x450       DLC: 8  Data: 0xFD 0x11 0x3F 0xFF 0xFF 0xFF 0xFF 0xFF
11:06:45.063 -> Standard ID: 0x200       DLC: 8  Data: 0x1E 0xFF 0x00 0x00 0x00 0x00 0x00 0x00
11:06:45.063 -> Standard ID: 0x328       DLC: 8  Data: 0x00 0x00 0xFF 0x00 0x00 0x00 0x00 0x00
11:06:45.063 -> Standard ID: 0x32B       DLC: 8  Data: 0x60 0x00 0x00 0x00 0x00 0x00 0x00 0x01
11:06:45.063 -> Standard ID: 0x236       DLC: 8  Data: 0x0F 0xF2 0x10 0x00 0x00 0x00 0x00 0xF8
11:06:45.063 -> Standard ID: 0x218       DLC: 8  Data: 0x4A 0x2A 0xDD 0x40 0x00 0x08 0xFF 0x00
11:06:45.063 -> Standard ID: 0x415       DLC: 8  Data: 0x00 0x00 0x00 0x00 0x00 0x02 0xCE 0x00
11:06:45.063 -> Standard ID: 0x236       DLC: 8  Data: 0x0F 0xF2 0x10 0x00 0x20 0x00 0x00 0xC8
11:06:45.063 -> Standard ID: 0x22A       DLC: 8  Data: 0x00 0x18 0x80 0x00 0x00 0x00 0x07 0xFF
11:06:45.063 -> Standard ID: 0x315       DLC: 8  Data: 0x11 0x00 0x00 0x00 0x00 0x00 0x00 0x00
11:06:45.063 -> Standard ID: 0x328       DLC: 8  Data: 0x00 0x00 0xFF 0x00 0x00 0x00 0x00 0x00
11:06:45.063 -> Standard ID: 0x338       DLC: 8  Data: 0x00 0x00 0x00 0x00 0x00 0x00 0x00 0x00
11:06:45.063 -> Standard ID: 0x356       DLC: 7  Data: 0x3F 0xFF 0x3F 0xFF 0x0B 0xB8 0x00
11:06:45.063 -> Standard ID: 0x451       DLC: 8  Data: 0xFD 0x13 0x3F 0xFF 0xFF 0xFF 0xFF 0xFF
11:06:45.063 -> Standard ID: 0x338       DLC: 8  Data: 0x00 0x00 0x00 0x00 0x00 0x00 0x00 0x00
11:06:45.063 -> Standard ID: 0x424       DLC: 8  Data: 0x10 0x00 0x00 0x01 0xBA 0x9C 0x00 0x00
11:06:45.063 -> Standard ID: 0x347       DLC: 8  Data: 0x09 0x00 0x00 0x17 0xA2 0x00 0x02 0x62
11:06:45.063 -> Standard ID: 0x365       DLC: 8  Data: 0x00 0xFF 0xFF 0x05 0xE1 0x00 0x00 0xC8
11:06:45.063 -> Standard ID: 0x300       DLC: 8  Data: 0x00 0x80 0x00 0x00 0x1F 0xFF 0xFF 0xFF
11:06:45.063 -> Standard ID: 0x212       DLC: 8  Data: 0x00 0x00 0xC8 0x42 0xE8 0x36 0x20 0x09
11:06:45.063 -> Standard ID: 0x338       DLC: 8  Data: 0x00 0x00 0x00 0x00 0x00 0x00 0x00 0x00
11:06:45.063 -> Standard ID: 0x424       DLC: 8  Data: 0x10 0x00 0x00 0x01 0xBA 0x9C 0x00 0x00
11:06:45.063 -> Standard ID: 0x255       DLC: 8  Data: 0x3F 0xFF 0x3F 0xFF 0x3F 0xFF 0xFF 0xFF
11:06:45.063 -> Standard ID: 0x365       DLC: 8  Data: 0x00 0xFF 0xFF 0x05 0xE1 0x00 0x00 0xC8
11:06:45.063 -> Standard ID: 0x315       DLC: 8  Data: 0x65 0x00 0x00 0x00 0x00 0x00 0x00 0x00
11:06:45.063 -> Standard ID: 0x312       DLC: 8  Data: 0x48 0x42 0x08 0x42 0x08 0x42 0x07 0xA7
11:06:45.063 -> Standard ID: 0x300       DLC: 8  Data: 0x00 0x00 0x00 0x00 0x9F 0xFF 0xFF 0xFF
11:06:45.063 -> Standard ID: 0x424       DLC: 8  Data: 0x10 0x00 0x00 0x01 0xBA 0x9C 0x00 0x00
11:06:45.063 -> Standard ID: 0x349       DLC: 8  Data: 0x00 0x00 0x00 0x00 0x00 0x00 0x00 0x00
11:06:45.063 -> Standard ID: 0x365       DLC: 8  Data: 0x00 0xFF 0xFF 0x05 0xE1 0x00 0x00 0xC8
11:06:45.063 -> Standard ID: 0x315       DLC: 8  Data: 0x2D 0x00 0x00 0x00 0x00 0x00 0x00 0x00
11:06:45.398 -> Standard ID: 0x7BC       DLC: 8  Data: 0x18 0xFE 0xD0 0x80 0x40 0x00 0x00 0x00
11:06:45.398 -> Standard ID: 0x236       DLC: 8  Data: 0x0F 0xF2 0x10 0x00 0x30 0x00 0x00 0xD0
11:06:45.398 -> Standard ID: 0x218       DLC: 8  Data: 0xCA 0x2A 0xDD 0x40 0x00 0x88 0xFF 0x00
11:06:45.398 -> Standard ID: 0x111       DLC: 6  Data: 0x3D 0xF9 0xD6 0x00 0x00 0x00
11:06:45.398 -> Standard ID: 0x2F1       DLC: 8  Data: 0x00 0x80 0x14 0x8F 0x00 0x00 0x00 0x00
11:06:45.398 -> Standard ID: 0x330       DLC: 8  Data: 0x18 0x00 0x00 0x00 0x00 0x00 0x00 0xFF
11:06:45.398 -> Standard ID: 0x349       DLC: 8  Data: 0x00 0x00 0x00 0x00 0x00 0x00 0x00 0x00
11:06:45.398 -> Standard ID: 0x338       DLC: 8  Data: 0x00 0x00 0x00 0x00 0x00 0x00 0x00 0x00
11:06:45.398 -> Standard ID: 0x424       DLC: 8  Data: 0x10 0x00 0x00 0x01 0xBA 0x9C 0x00 0x00
11:06:45.398 -> Standard ID: 0x7BC       DLC: 8  Data: 0x1B 0x32 0x18 0x00 0x1B 0x00 0x00 0x00
11:06:45.398 -> Standard ID: 0x236       DLC: 8  Data: 0x0F 0xF2 0x10 0x00 0x90 0x00 0x00 0x20
11:06:45.398 -> Standard ID: 0x265       DLC: 8  Data: 0x00 0x00 0x00 0x00 0xFF 0xFF 0x07 0xD2
11:06:45.398 -> Standard ID: 0x425       DLC: 8  Data: 0x00 0x00 0x02 0x00 0x00 0x00 0x00 0x00
11:06:45.398 -> Standard ID: 0x2F1       DLC: 8  Data: 0x00 0x80 0x14 0x8F 0x00 0x00 0x00 0x00
11:06:45.398 -> Standard ID: 0x418       DLC: 8  Data: 0x50 0xFF 0x45 0x10 0x00 0x18 0x01 0x00
11:06:45.398 -> Standard ID: 0x7BC       DLC: 8  Data: 0x1D 0x00 0x00 0x01 0x00 0x00 0x00 0x00
11:06:45.398 -> Standard ID: 0x311       DLC: 8  Data: 0x00 0x76 0xBC 0x00 0x00 0x78 0x00 0x00
11:06:45.398 -> Standard ID: 0x520       DLC: 8  Data: 0x00 0x00 0x00 0x00 0x00 0x00 0x00 0x00
11:06:45.398 -> Standard ID: 0x425       DLC: 8  Data: 0x00 0x00 0x02 0x00 0x00 0x00 0x00 0x00
11:06:45.398 -> Standard ID: 0x215       DLC: 8  Data: 0x00 0x00 0x00 0x00 0x00 0x00 0x04 0x00
11:06:45.398 -> Standard ID: 0x418       DLC: 8  Data: 0x50 0xFF 0x45 0x10 0x00 0x00 0x01 0x00
11:06:45.398 -> Standard ID: 0x330       DLC: 8  Data: 0x00 0x00 0x00 0x00 0x00 0x00 0x00 0xFF
11:06:45.398 -> Standard ID: 0x308       DLC: 8  Data: 0x40 0x00 0x72 0x46 0x0D 0x00 0x00 0x00
11:06:45.398 -> Standard ID: 0x418       DLC: 8  Data: 0x50 0xFF 0x45 0x10 0x00 0x00 0x01 0x00
11:06:45.398 -> Standard ID: 0x5FE       DLC: 8  Data: 0x41 0x12 0x15 0x11 0x01 0x60 0x06 0xC3
11:06:45.398 -> Standard ID: 0x228       DLC: 8  Data: 0x00 0x00 0x00 0x7F 0xFF 0x00 0x80 0x00
11:06:45.398 -> Standard ID: 0x418       DLC: 8  Data: 0x50 0xFF 0x45 0x10 0x00 0x18 0x01 0x00
11:06:45.398 -> Standard ID: 0x7BC       DLC: 8  Data: 0x21 0x00 0x00 0x00 0x00 0x00 0x00 0x00
11:06:45.398 -> Standard ID: 0x356       DLC: 7  Data: 0x3F 0xFF 0x3F 0xFF 0x0B 0xB8 0x00
11:06:45.398 -> Standard ID: 0x330       DLC: 8  Data: 0x00 0x00 0x00 0x00 0x00 0x00 0x00 0xFF
11:06:45.398 -> Standard ID: 0x328       DLC: 8  Data: 0x00 0x00 0xFF 0x00 0x00 0x00 0x00 0x00
11:06:45.398 -> Standard ID: 0x32B       DLC: 8  Data: 0x60 0x00 0x00 0x00 0x00 0x00 0x00 0x01
11:06:45.398 -> Standard ID: 0x520       DLC: 8  Data: 0x00 0x00 0x00 0x00 0x00 0x00 0x00 0x00
11:06:45.398 -> Standard ID: 0x1D0       DLC: 8  Data: 0x00 0x6F 0x0E 0x7B 0x06 0x00 0x00 0x00
11:06:45.398 -> Standard ID: 0x415       DLC: 8  Data: 0x00 0x00 0x00 0x00 0x00 0x02 0xCE 0x00
11:06:45.398 -> Standard ID: 0x418       DLC: 8  Data: 0x50 0xFF 0x45 0x10 0x00 0x00 0x01 0x00
11:06:45.398 -> Standard ID: 0x425       DLC: 8  Data: 0x00 0x00 0x02 0x00 0x00 0x00 0x00 0x00
11:06:45.398 -> Standard ID: 0x330       DLC: 8  Data: 0x18 0x00 0x00 0x00 0x00 0x00 0x00 0xFF
11:06:45.398 -> Standard ID: 0x236       DLC: 8  Data: 0x0F 0xF2 0x10 0x00 0xC0 0x00 0x00 0x58
11:06:45.398 -> Standard ID: 0x338       DLC: 8  Data: 0x00 0x00 0x00 0x00 0x00 0x00 0x00 0x00
11:06:45.398 -> Standard ID: 0x356       DLC: 7  Data: 0x3F 0xFF 0x3F 0xFF 0x0B 0xB8 0x00
11:06:45.398 -> Standard ID: 0x236       DLC: 8  Data: 0x0F 0xF2 0x10 0x00 0xE0 0x00 0x00 0x68
11:06:45.398 -> Standard ID: 0x338       DLC: 8  Data: 0x00 0x00 0x00 0x00 0x00 0x00 0x00 0x00
11:06:45.398 -> Standard ID: 0x356       DLC: 7  Data: 0x3F 0xFF 0x3F 0xFF 0x0B 0xB8 0x00
11:06:45.398 -> Standard ID: 0x236       DLC: 8  Data: 0x0F 0xF2 0x10 0x00 0x00 0x00 0x00 0xF8
11:06:45.398 -> Standard ID: 0x218       DLC: 8  Data: 0x49 0x36 0xDD 0x40 0x00 0x88 0xFF 0x00
11:06:45.398 -> Standard ID: 0x328       DLC: 8  Data: 0x00 0x00 0xFF 0x00 0x00 0x00 0x00 0x00
11:06:45.398 -> Standard ID: 0x236       DLC: 8  Data: 0x0F 0xF2 0x10 0x00 0x20 0x00 0x00 0xC8
11:06:45.398 -> Standard ID: 0x22A       DLC: 8  Data: 0x00 0x18 0x80 0x00 0x00 0x00 0x07 0xFF
11:06:45.729 -> Standard ID: 0x424       DLC: 8  Data: 0x10 0x00 0x00 0x01 0xBA 0x9C 0x00 0x00
11:06:45.729 -> Standard ID: 0x212       DLC: 8  Data: 0x00 0x00 0xC8 0x42 0xE8 0x36 0x20 0x0D
11:06:45.729 -> Standard ID: 0x365       DLC: 8  Data: 0x00 0xFF 0xFF 0x04 0xE1 0x00 0x00 0xC8
11:06:45.729 -> Standard ID: 0x45B       DLC: 8  Data: 0xFD 0x10 0x3F 0xFF 0xFF 0xFF 0xFF 0xFF
11:06:45.729 -> Standard ID: 0x308       DLC: 8  Data: 0x40 0x01 0x34 0x40 0x0D 0x00 0x00 0x00
11:06:45.729 -> Standard ID: 0x300       DLC: 8  Data: 0x00 0x80 0x00 0x00 0x1F 0xFF 0xFF 0xFF
11:06:45.729 -> Standard ID: 0x424       DLC: 8  Data: 0x10 0x00 0x00 0x01 0xBA 0x9C 0x00 0x00
11:06:45.729 -> Standard ID: 0x308       DLC: 8  Data: 0x40 0x01 0x34 0x00 0x0C 0x00 0x00 0x00
11:06:45.729 -> Standard ID: 0x365       DLC: 8  Data: 0x00 0xFF 0xFF 0x04 0xE1 0x00 0x00 0xC8
11:06:45.729 -> Standard ID: 0x315       DLC: 8  Data: 0x7D 0x00 0x00 0x00 0x00 0x00 0x00 0x00
11:06:45.729 -> Standard ID: 0x361       DLC: 8  Data: 0x92 0x92 0x79 0x21 0x87 0xA2 0xC6 0x43
11:06:45.729 -> Standard ID: 0x22A       DLC: 8  Data: 0x00 0x18 0x80 0x00 0x00 0x00 0x07 0xFF
11:06:45.729 -> Standard ID: 0x424       DLC: 8  Data: 0x10 0x00 0x00 0x01 0xBA 0x9C 0x00 0x00
11:06:45.729 -> Standard ID: 0x328       DLC: 8  Data: 0x00 0x00 0xFF 0x00 0x00 0x00 0x00 0x00
11:06:45.729 -> Standard ID: 0x2F1       DLC: 8  Data: 0x00 0x80 0x14 0x8F 0x00 0x00 0x00 0x00
11:06:45.729 -> Standard ID: 0x330       DLC: 8  Data: 0x00 0x00 0x00 0x00 0x00 0x00 0x00 0xFF
11:06:45.729 -> Standard ID: 0x7BC       DLC: 8  Data: 0x2E 0x00 0x00 0x00 0x00 0x00 0x00 0x00
11:06:45.729 -> Standard ID: 0x2F1       DLC: 8  Data: 0x00 0x80 0x14 0x8F 0x00 0x00 0x00 0x00
11:06:45.729 -> Standard ID: 0x6FB       DLC: 8  Data: 0x01 0x41 0x0C 0x04 0x81 0x00 0x11 0x80
11:06:45.729 -> Standard ID: 0x7BC       DLC: 8  Data: 0x2F 0x00 0x00 0x00 0x00 0x00 0x00 0x00
11:06:45.729 -> Standard ID: 0x236       DLC: 8  Data: 0x0F 0xF2 0x10 0x00 0x10 0x00 0x00 0xE0
11:06:45.729 -> Standard ID: 0x218       DLC: 8  Data: 0x49 0x2D 0xDD 0x40 0x00 0x88 0xFF 0x00
11:06:45.729 -> Standard ID: 0x425       DLC: 8  Data: 0x00 0x00 0x02 0x00 0x00 0x00 0x00 0x00
11:06:45.729 -> Standard ID: 0x236       DLC: 8  Data: 0x0F 0xF2 0x10 0x00 0x30 0x00 0x00 0xD0
11:06:45.729 -> Standard ID: 0x418       DLC: 8  Data: 0x50 0xFF 0x45 0x10 0x00 0x18 0x01 0x00
11:06:45.729 -> Standard ID: 0x7BC       DLC: 8  Data: 0x31 0x00 0x00 0x00 0x00 0x00 0x00 0x00
11:06:45.729 -> Standard ID: 0x215       DLC: 8  Data: 0x00 0x00 0x00 0x00 0x00 0x00 0x04 0x00
11:06:45.729 -> Standard ID: 0x520       DLC: 8  Data: 0x00 0x00 0x00 0x00 0x00 0x00 0x00 0x00
11:06:45.729 -> Standard ID: 0x425       DLC: 8  Data: 0x00 0x00 0x02 0x00 0x00 0x00 0x00 0x00
11:06:45.729 -> Standard ID: 0x215       DLC: 8  Data: 0x00 0x00 0x00 0x00 0x00 0x00 0x04 0x00
11:06:45.729 -> Standard ID: 0x418       DLC: 8  Data: 0x50 0xFF 0x45 0x10 0x00 0x00 0x01 0x00
11:06:45.729 -> Standard ID: 0x330       DLC: 8  Data: 0x18 0x00 0x00 0x00 0x00 0x00 0x00 0xFF
11:06:45.729 -> Standard ID: 0x312       DLC: 8  Data: 0x68 0x29 0x08 0x02 0x08 0x42 0x07 0xA7
11:06:45.729 -> Standard ID: 0x418       DLC: 8  Data: 0x50 0xFF 0x45 0x10 0x00 0x00 0x01 0x00
11:06:45.729 -> Standard ID: 0x425       DLC: 8  Data: 0x00 0x00 0x02 0x00 0x00 0x00 0x00 0x00
11:06:45.729 -> Standard ID: 0x228       DLC: 8  Data: 0x00 0x00 0x00 0x7F 0xFF 0x00 0x80 0x00
11:06:45.729 -> Standard ID: 0x418       DLC: 8  Data: 0x50 0xFF 0x45 0x10 0x00 0x18 0x01 0x00
11:06:45.729 -> Standard ID: 0x328       DLC: 8  Data: 0x00 0x00 0xFF 0x00 0x00 0x00 0x00 0x00
11:06:45.729 -> Standard ID: 0x228       DLC: 8  Data: 0x00 0x00 0x00 0x7F 0xFF 0x00 0x80 0x00
11:06:45.729 -> Standard ID: 0x418       DLC: 8  Data: 0x50 0xFF 0x45 0x10 0x00 0x18 0x01 0x00
11:06:45.729 -> Standard ID: 0x425       DLC: 8  Data: 0x00 0x00 0x02 0x00 0x00 0x00 0x00 0x00
11:06:45.729 -> Standard ID: 0x390       DLC: 8  Data: 0x08 0x00 0x00 0x00 0x00 0x00 0x00 0x00
11:06:45.729 -> Standard ID: 0x520       DLC: 8  Data: 0x00 0x00 0x00 0x00 0x00 0x00 0x00 0x00
11:06:45.729 -> Standard ID: 0x1D0       DLC: 8  Data: 0x00 0x11 0x00 0x53 0x00 0x5E 0x06 0x00
11:06:45.729 -> Standard ID: 0x453       DLC: 8  Data: 0xFD 0x14 0x3F 0xFF 0xFF 0xFF 0xFF 0xFF
11:06:45.729 -> Standard ID: 0x328       DLC: 8  Data: 0x00 0x00 0x80 0x00 0x00 0x00 0x00 0x00
11:06:45.729 -> Standard ID: 0x218       DLC: 8  Data: 0xC9 0x32 0xDD 0x40 0x00 0x88 0xFF 0x00
11:06:45.729 -> Standard ID: 0x315       DLC: 8  Data: 0x71 0x00 0x00 0x00 0x00 0x00 0x00 0x00
11:06:45.729 -> Standard ID: 0x236       DLC: 8  Data: 0x0F 0xF2 0x10 0x00 0x40 0x00 0x00 0x98
11:06:45.729 -> Standard ID: 0x186       DLC: 8  Data: 0x00 0x00 0x00 0x00 0x00 0x00 0x00 0x00
11:06:46.078 -> Standard ID: 0x315       DLC: 8  Data: 0x35 0x00 0x00 0x00 0x00 0x00 0x00 0x00
11:06:46.078 -> Standard ID: 0x308       DLC: 8  Data: 0x40 0x05 0x0A 0x40 0x05 0x00 0x00 0x00
11:06:46.078 -> Standard ID: 0x22A       DLC: 8  Data: 0x00 0x00 0x40 0x00 0x00 0x00 0x07 0xFF
11:06:46.078 -> Standard ID: 0x328       DLC: 8  Data: 0x00 0x00 0x80 0x00 0x00 0x00 0x00 0x00
11:06:46.078 -> Standard ID: 0x312       DLC: 8  Data: 0x08 0x3B 0x07 0xC0 0x08 0x72 0x07 0xA8
11:06:46.078 -> Standard ID: 0x365       DLC: 8  Data: 0x04 0xFF 0xFF 0x04 0xE1 0x00 0x00 0xC8
11:06:46.078 -> Standard ID: 0x315       DLC: 8  Data: 0x7D 0x00 0x00 0x00 0x00 0x00 0x00 0x00
11:06:46.078 -> Standard ID: 0x154       DLC: 8  Data: 0x63 0x64 0xE0 0xFF 0xFF 0x04 0xA3 0x5F
11:06:46.078 -> Standard ID: 0x22A       DLC: 8  Data: 0x00 0x18 0x80 0x00 0x00 0x00 0x07 0xFF
11:06:46.078 -> Standard ID: 0x6FF       DLC: 8  Data: 0x41 0x6A 0x06 0x94 0x60 0x00 0x00 0x00
11:06:46.078 -> Standard ID: 0x7BC       DLC: 8  Data: 0x3D 0x00 0x00 0x00 0x00 0x00 0x00 0x00
11:06:46.078 -> Standard ID: 0x328       DLC: 8  Data: 0x00 0x00 0x80 0x00 0x00 0x00 0x00 0x00
11:06:46.078 -> Standard ID: 0x6FB       DLC: 8  Data: 0x01 0x41 0x0C 0x04 0x81 0x00 0x11 0x80
11:06:46.078 -> Standard ID: 0x6FA       DLC: 8  Data: 0x00 0x20 0x20 0x20 0x20 0x20 0x42 0x32
11:06:46.078 -> Standard ID: 0x2F1       DLC: 8  Data: 0x00 0x80 0x14 0x8F 0x00 0x00 0x00 0x00
11:06:46.078 -> Standard ID: 0x424       DLC: 8  Data: 0x10 0x00 0x00 0x01 0xBA 0x9C 0x00 0x00
11:06:46.078 -> Standard ID: 0x7BC       DLC: 8  Data: 0x3F 0x00 0x00 0x00 0x00 0x00 0x00 0x00
11:06:46.078 -> Standard ID: 0x2F1       DLC: 8  Data: 0x00 0x80 0x14 0x8F 0x00 0x00 0x00 0x00
11:06:46.078 -> Standard ID: 0x200       DLC: 8  Data: 0x1E 0x3F 0x00 0x00 0x00 0x00 0x00 0x00
11:06:46.078 -> Standard ID: 0x328       DLC: 8  Data: 0x00 0x00 0x80 0x00 0x00 0x00 0x00 0x00
11:06:46.078 -> Standard ID: 0x236       DLC: 8  Data: 0x0F 0xF2 0x10 0x00 0x30 0x00 0x00 0xD0
11:06:46.078 -> Standard ID: 0x218       DLC: 8  Data: 0xC9 0xEF 0xDD 0x40 0x00 0x88 0xFF 0x00
11:06:46.078 -> Standard ID: 0x7BC       DLC: 8  Data: 0x41 0x00 0x00 0x00 0x00 0x00 0x00 0x00
11:06:46.078 -> Standard ID: 0x215       DLC: 8  Data: 0x00 0x00 0x00 0x00 0x00 0x00 0x04 0x00
11:06:46.078 -> Standard ID: 0x418       DLC: 8  Data: 0x50 0xFF 0x45 0x10 0x00 0x18 0x01 0x00
11:06:46.078 -> Standard ID: 0x425       DLC: 8  Data: 0x00 0x00 0x02 0x00 0x00 0x00 0x00 0x00
11:06:46.078 -> Standard ID: 0x308       DLC: 8  Data: 0x40 0x07 0x4C 0x00 0x04 0x00 0x00 0x00
11:06:46.078 -> Standard ID: 0x300       DLC: 8  Data: 0x00 0x80 0x00 0x00 0x1F 0xFF 0x80 0x00
11:06:46.078 -> Standard ID: 0x7BC       DLC: 8  Data: 0x02 0x01 0x07 0x61 0x00 0x00 0x00 0x04
11:06:46.078 -> Standard ID: 0x312       DLC: 8  Data: 0x68 0x13 0x07 0xDD 0x08 0x89 0x07 0xAB
11:06:46.078 -> Standard ID: 0x418       DLC: 8  Data: 0x50 0xFF 0x45 0x10 0x00 0x00 0x01 0x00
11:06:46.078 -> Standard ID: 0x425       DLC: 8  Data: 0x00 0x00 0x02 0x00 0x00 0x00 0x00 0x00
11:06:46.078 -> Standard ID: 0x356       DLC: 7  Data: 0x3F 0xFF 0x3F 0xFF 0x0B 0xB8 0x00
11:06:46.078 -> Standard ID: 0x418       DLC: 8  Data: 0x50 0xFF 0x45 0x10 0x00 0x18 0x01 0x00
11:06:46.078 -> Standard ID: 0x363       DLC: 8  Data: 0x15 0x0C 0x11 0x6A 0x73 0xC5 0x01 0x06
11:06:46.078 -> Standard ID: 0x214       DLC: 8  Data: 0x00 0x00 0x00 0x00 0x00 0x00 0x03 0x00
11:06:46.078 -> Standard ID: 0x520       DLC: 8  Data: 0x00 0x00 0x00 0x00 0x00 0x00 0x00 0x00
11:06:46.078 -> Standard ID: 0x425       DLC: 8  Data: 0x00 0x00 0x02 0x00 0x00 0x00 0x00 0x00
11:06:46.078 -> Standard ID: 0x415       DLC: 8  Data: 0x00 0x00 0x00 0x00 0x00 0x00 0xCE 0x00
11:06:46.078 -> Standard ID: 0x418       DLC: 8  Data: 0x50 0xFF 0x45 0x10 0x00 0x00 0x01 0x00
11:06:46.078 -> Standard ID: 0x330       DLC: 8  Data: 0x10 0x00 0x00 0x00 0x00 0x00 0x00 0x7F
11:06:46.078 -> Standard ID: 0x228       DLC: 8  Data: 0x00 0x00 0x00 0x7F 0xFF 0x00 0x00 0x80
11:06:46.078 -> Standard ID: 0x418       DLC: 8  Data: 0x50 0xFF 0x45 0x10 0x00 0x00 0x01 0x00
11:06:46.078 -> Standard ID: 0x214       DLC: 8  Data: 0x00 0x00 0x00 0x00 0x00 0x00 0x03 0x00
11:06:46.078 -> Standard ID: 0x228       DLC: 8  Data: 0x00 0x00 0x00 0x7F 0xFF 0x00 0x80 0x00
11:06:46.078 -> Standard ID: 0x330       DLC: 8  Data: 0x18 0x00 0x00 0x00 0x00 0x00 0x00 0x7E
11:06:46.078 -> Standard ID: 0x328       DLC: 8  Data: 0x00 0x00 0x80 0x00 0x00 0x00 0x00 0x00
11:06:46.078 -> Standard ID: 0x1C2       DLC: 8  Data: 0x00 0x44 0x0D 0x00 0x00 0x00 0x00 0x00
11:06:46.078 -> Standard ID: 0x212       DLC: 8  Data: 0x00 0x00 0x07 0xEA 0x67 0xDF 0x20 0x6D
11:06:46.078 -> Standard ID: 0x218       DLC: 8  Data: 0xCA 0x2C 0xDD 0x40 0x00 0x88 0xFF 0x00
11:06:46.387 -> Standard ID: 0x390       DLC: 8  Data: 0x08 0x00 0x00 0x00 0x00 0x00 0x00 0x00
11:06:46.387 -> Standard ID: 0x214       DLC: 8  Data: 0x00 0x00 0x00 0x00 0x00 0x00 0x00 0x00
11:06:46.387 -> Standard ID: 0x365       DLC: 8  Data: 0x03 0xFF 0xFF 0x04 0xDF 0x00 0x00 0xC8
11:06:46.387 -> Standard ID: 0x6FF       DLC: 8  Data: 0x41 0x6A 0x06 0x94 0x60 0x00 0x00 0x00
11:06:46.387 -> Standard ID: 0x312       DLC: 8  Data: 0x67 0xE5 0x07 0xDE 0x08 0x90 0x07 0xAC
11:06:46.387 -> Standard ID: 0x22A       DLC: 8  Data: 0x00 0x18 0x80 0x00 0x00 0x00 0x07 0xFF
11:06:46.387 -> Standard ID: 0x6FB       DLC: 8  Data: 0x01 0x41 0x0C 0x04 0x81 0x00 0x11 0x80
11:06:46.387 -> Standard ID: 0x349       DLC: 8  Data: 0x00 0x00 0x00 0x00 0x00 0x00 0x00 0x00
11:06:46.387 -> Standard ID: 0x520       DLC: 8  Data: 0x00 0x00 0x00 0x00 0x00 0x00 0x00 0x00
11:06:46.387 -> Standard ID: 0x6F3       DLC: 8  Data: 0x01 0x00 0x00 0x00 0x00 0x00 0x00 0x09
11:06:46.387 -> Standard ID: 0x7BC       DLC: 8  Data: 0x0D 0x00 0x00 0x00 0x00 0x00 0x00 0x00
11:06:46.387 -> Standard ID: 0x2F1       DLC: 8  Data: 0x00 0x00 0x14 0x8F 0x00 0x00 0x00 0x00
11:06:46.387 -> Standard ID: 0x424       DLC: 8  Data: 0x98 0x00 0x00 0x01 0xBA 0x9C 0x00 0x00
11:06:46.387 -> Standard ID: 0x361       DLC: 8  Data: 0x92 0x92 0x79 0x21 0x97 0xA2 0xC6 0x43
11:06:46.387 -> Standard ID: 0x2F1       DLC: 8  Data: 0x00 0x00 0x14 0x8F 0x00 0x00 0x00 0x00
11:06:46.387 -> Standard ID: 0x315       DLC: 8  Data: 0x4D 0x00 0x00 0x00 0x00 0x00 0x00 0x00
11:06:46.387 -> Standard ID: 0x154       DLC: 8  Data: 0x63 0x64 0xE0 0xFF 0xFF 0x04 0xA3 0x5F
11:06:46.387 -> Standard ID: 0x214       DLC: 8  Data: 0x00 0x00 0x00 0x00 0x00 0x00 0x03 0x00
11:06:46.387 -> Standard ID: 0x424       DLC: 8  Data: 0x98 0x00 0x00 0x01 0xBA 0x9C 0x00 0x00
11:06:46.387 -> Standard ID: 0x7BC       DLC: 8  Data: 0x10 0x00 0x00 0x00 0x00 0x00 0x00 0x00
11:06:46.387 -> Standard ID: 0x328       DLC: 8  Data: 0x00 0x00 0x80 0x00 0x00 0x00 0x00 0x00
11:06:46.387 -> Standard ID: 0x315       DLC: 8  Data: 0x55 0x00 0x00 0x00 0x00 0x00 0x00 0x00
11:06:46.387 -> Standard ID: 0x7BC       DLC: 8  Data: 0x11 0xFF 0x74 0x1C 0x00 0x00 0x66 0x00
11:06:46.387 -> Standard ID: 0x236       DLC: 8  Data: 0x0F 0xF2 0x10 0x00 0x70 0x00 0x00 0xB0
11:06:46.387 -> Standard ID: 0x218       DLC: 8  Data: 0xCA 0x2C 0xDD 0x40 0x00 0x88 0xFF 0x00
11:06:46.387 -> Standard ID: 0x214       DLC: 8  Data: 0x00 0x00 0x00 0x00 0x00 0x00 0x03 0x00
11:06:46.387 -> Standard ID: 0x215       DLC: 8  Data: 0x00 0x00 0x00 0x00 0x00 0x00 0x04 0x00
11:06:46.387 -> Standard ID: 0x418       DLC: 8  Data: 0x50 0xFF 0x45 0x10 0x00 0x00 0x01 0x00
11:06:46.387 -> Standard ID: 0x425       DLC: 8  Data: 0x00 0x00 0x02 0x00 0x00 0x00 0x00 0x00
11:06:46.387 -> Standard ID: 0x32B       DLC: 8  Data: 0x60 0x00 0x00 0x03 0x00 0x00 0x00 0x03
11:06:46.387 -> Standard ID: 0x520       DLC: 8  Data: 0x00 0x00 0x00 0x00 0x00 0x00 0x00 0x00
11:06:46.387 -> Standard ID: 0x1D0       DLC: 8  Data: 0x00 0x11 0x00 0x53 0x00 0x5E 0x06 0x00
11:06:46.387 -> Standard ID: 0x356       DLC: 7  Data: 0x3F 0xFF 0x3F 0xFF 0x0B 0xB8 0x00
11:06:46.387 -> Standard ID: 0x418       DLC: 8  Data: 0x50 0xFF 0x45 0x10 0x00 0x18 0x01 0x00
11:06:46.387 -> Standard ID: 0x425       DLC: 8  Data: 0x00 0x00 0x02 0x00 0x00 0x00 0x00 0x00
11:06:46.387 -> Standard ID: 0x330       DLC: 8  Data: 0x08 0x00 0x00 0x00 0x00 0x00 0x00 0x7F
11:06:46.387 -> Standard ID: 0x418       DLC: 8  Data: 0x50 0xFF 0x45 0x10 0x00 0x00 0x01 0x00
11:06:46.387 -> Standard ID: 0x7BC       DLC: 8  Data: 0x16 0x00 0x00 0x00 0x00 0x00 0x00 0x00
11:06:46.387 -> Standard ID: 0x356       DLC: 7  Data: 0x3F 0xFF 0x3F 0xFF 0x0B 0xB8 0x00
11:06:46.387 -> Standard ID: 0x22B       DLC: 8  Data: 0x00 0x00 0x00 0x1F 0x00 0x00 0x00 0x00
11:06:46.387 -> Standard ID: 0x425       DLC: 8  Data: 0x00 0x00 0x02 0x00 0x00 0x00 0x00 0x00
11:06:46.387 -> Standard ID: 0x356       DLC: 7  Data: 0x3F 0xFF 0x3F 0xFF 0x0B 0xB8 0x00
11:06:46.387 -> Standard ID: 0x418       DLC: 8  Data: 0x50 0xFF 0x45 0x10 0x00 0x18 0x01 0x00
11:06:46.387 -> Standard ID: 0x200       DLC: 8  Data: 0x1E 0x3F 0x00 0x00 0x00 0x00 0x00 0x00
11:06:46.387 -> Standard ID: 0x328       DLC: 8  Data: 0x00 0x00 0x80 0x00 0x00 0x00 0x00 0x00
11:06:46.387 -> Standard ID: 0x520       DLC: 8  Data: 0x00 0x00 0x00 0x00 0x00 0x00 0x00 0x00
11:06:46.387 -> Standard ID: 0x425       DLC: 8  Data: 0x00 0x00 0x02 0x00 0x00 0x00 0x00 0x00
11:06:46.387 -> Standard ID: 0x363       DLC: 8  Data: 0x15 0x0C 0x11 0x6A 0x77 0xF0 0x03 0x08
11:06:46.387 -> Standard ID: 0x418       DLC: 8  Data: 0x50 0xFF 0x45 0x10 0x00 0x00 0x01 0x00
11:06:46.763 -> Standard ID: 0x6FD       DLC: 8  Data: 0x01 0x8F 0x00 0x40 0x50 0x44 0x80 0x10
11:06:46.763 -> Standard ID: 0x228       DLC: 8  Data: 0x00 0x00 0x00 0x7F 0xFF 0x00 0x00 0x80
11:06:46.763 -> Standard ID: 0x200       DLC: 8  Data: 0x1E 0x3F 0x00 0x00 0x00 0x00 0x00 0x00
11:06:46.763 -> Standard ID: 0x328       DLC: 8  Data: 0x00 0x00 0x80 0x00 0x00 0x00 0x00 0x00
11:06:46.763 -> Standard ID: 0x228       DLC: 8  Data: 0x00 0x00 0x00 0x7F 0xFF 0x00 0x80 0x00
11:06:46.763 -> Standard ID: 0x212       DLC: 8  Data: 0x00 0x00 0xC7 0xD3 0xE7 0xE1 0x20 0x98
11:06:46.763 -> Standard ID: 0x328       DLC: 8  Data: 0x00 0x00 0x80 0x00 0x00 0x00 0x00 0x00
11:06:46.763 -> Standard ID: 0x228       DLC: 8  Data: 0x00 0x00 0x00 0x7F 0xFF 0x00 0x80 0x00
11:06:46.763 -> Standard ID: 0x308       DLC: 8  Data: 0x40 0x07 0x37 0x40 0x05 0x00 0x00 0x00
11:06:46.763 -> Standard ID: 0x218       DLC: 8  Data: 0xCA 0x2A 0xDD 0x40 0x00 0x88 0xFF 0x00
11:06:46.763 -> Standard ID: 0x200       DLC: 8  Data: 0x1E 0xFF 0x00 0x00 0x00 0x00 0x00 0x00
11:06:46.763 -> Standard ID: 0x300       DLC: 8  Data: 0x00 0x00 0x00 0x00 0x9F 0xFF 0x80 0x00
11:06:46.763 -> Standard ID: 0x338       DLC: 8  Data: 0x00 0x00 0x00 0x00 0x00 0x00 0x07 0x37
11:06:46.763 -> Standard ID: 0x315       DLC: 8  Data: 0x4D 0x00 0x00 0x00 0x00 0x00 0x00 0x00
11:06:46.763 -> Standard ID: 0x4A0       DLC: 8  Data: 0x2B 0xD3 0x33 0x19 0xFF 0xFF 0xFF 0x04
11:06:46.763 -> Standard ID: 0x2F1       DLC: 8  Data: 0x00 0x00 0x14 0x8F 0x00 0x00 0x00 0x00
11:06:46.763 -> Standard ID: 0x424       DLC: 8  Data: 0x98 0x00 0x00 0x01 0xBA 0x9C 0x00 0x00
11:06:46.763 -> Standard ID: 0x7BC       DLC: 8  Data: 0x20 0x00 0x00 0x00 0x00 0x00 0x00 0x00
11:06:46.763 -> Standard ID: 0x22A       DLC: 8  Data: 0x00 0x18 0x80 0x00 0x00 0x00 0x07 0xFF
11:06:46.763 -> Standard ID: 0x328       DLC: 8  Data: 0x00 0x00 0x80 0x00 0x00 0x00 0x00 0x00
11:06:46.763 -> Standard ID: 0x7BC       DLC: 8  Data: 0x21 0x00 0x00 0x00 0x00 0x00 0x00 0x00
11:06:46.763 -> Standard ID: 0x22A       DLC: 8  Data: 0x00 0x00 0x40 0x00 0x00 0x00 0x07 0xFF
11:06:46.763 -> Standard ID: 0x424       DLC: 8  Data: 0x98 0x00 0x00 0x01 0xBA 0x9C 0x00 0x00
11:06:46.763 -> Standard ID: 0x361       DLC: 8  Data: 0x92 0x92 0x79 0x22 0x17 0xA2 0xC6 0x43
11:06:46.763 -> Standard ID: 0x22A       DLC: 8  Data: 0x00 0x00 0x40 0x00 0x00 0x00 0x07 0xFF
11:06:46.763 -> Standard ID: 0x315       DLC: 8  Data: 0x1D 0x00 0x00 0x00 0x00 0x00 0x00 0x00
11:06:46.763 -> Standard ID: 0x154       DLC: 8  Data: 0x63 0x64 0xE0 0xFF 0xFF 0x04 0xA3 0x5F
11:06:46.763 -> Standard ID: 0x210       DLC: 8  Data: 0x00 0x00 0x00 0x80 0xC0 0x00 0x00 0xFF
11:06:46.763 -> Standard ID: 0x008       DLC: 8  Data: 0x08 0x00 0x00 0x00 0x00 0x00 0x00 0x00
11:06:46.763 -> Standard ID: 0x7BC       DLC: 8  Data: 0x24 0x00 0x00 0x00 0x00 0x00 0x00 0x00
11:06:46.763 -> Standard ID: 0x308       DLC: 8  Data: 0x40 0x06 0xFA 0x40 0x05 0x00 0x00 0x00
11:06:46.763 -> Standard ID: 0x45A       DLC: 8  Data: 0xFD 0x1B 0x3F 0xFF 0xFF 0xFF 0xFF 0xFF
11:06:46.763 -> Standard ID: 0x7BC       DLC: 8  Data: 0x25 0x00 0x00 0x00 0x00 0x00 0x00 0x00
11:06:46.763 -> Standard ID: 0x236       DLC: 8  Data: 0x0F 0xF2 0x10 0x00 0xF0 0x00 0x00 0x70
11:06:46.763 -> Standard ID: 0x218       DLC: 8  Data: 0xCA 0x1C 0xDD 0x40 0x00 0x88 0xFF 0x00
11:06:46.763 -> Standard ID: 0x328       DLC: 8  Data: 0x00 0x00 0x80 0x00 0x00 0x00 0x00 0x00
11:06:46.763 -> Standard ID: 0x236       DLC: 8  Data: 0x0F 0xF2 0x10 0x00 0x10 0x00 0x00 0xE0
11:06:46.763 -> Standard ID: 0x265       DLC: 8  Data: 0x05 0xD5 0x02 0xA7 0xFF 0xFF 0x07 0xD4
11:06:46.763 -> Standard ID: 0x425       DLC: 8  Data: 0x00 0x00 0x02 0x00 0x00 0x00 0x00 0x00
11:06:46.763 -> Standard ID: 0x356       DLC: 7  Data: 0x3F 0xFF 0x3F 0xFF 0x0B 0xB8 0x00
11:06:46.763 -> Standard ID: 0x520       DLC: 8  Data: 0x00 0x00 0x00 0x00 0x00 0x00 0x00 0x00
11:06:46.763 -> Standard ID: 0x1D0       DLC: 8  Data: 0x00 0x1F 0x1E 0x60 0x0E 0x64 0x0E 0x00
11:06:46.763 -> Standard ID: 0x356       DLC: 7  Data: 0x3F 0xFF 0x3F 0xFF 0x0B 0xB8 0x00
11:06:46.763 -> Standard ID: 0x214       DLC: 8  Data: 0x00 0x00 0x00 0x00 0x00 0x00 0x03 0x00
11:06:46.763 -> Standard ID: 0x425       DLC: 8  Data: 0x00 0x00 0x02 0x00 0x00 0x00 0x00 0x00
11:06:46.763 -> Standard ID: 0x330       DLC: 8  Data: 0x10 0x00 0x00 0x00 0x00 0x00 0x00 0x7F
11:06:46.763 -> Standard ID: 0x418       DLC: 8  Data: 0x50 0xFF 0x45 0x10 0x00 0x00 0x01 0x00
11:06:46.763 -> Standard ID: 0x5FE       DLC: 8  Data: 0x41 0x12 0x15 0x11 0x01 0x60 0x06 0xC3
11:06:46.763 -> Standard ID: 0x32B       DLC: 8  Data: 0x60 0x00 0x00 0x03 0x00 0x00 0x00 0x03
11:06:46.763 -> Standard ID: 0x22B       DLC: 8  Data: 0x00 0x00 0x00 0x1F 0x00 0x00 0x00 0x00
11:06:47.065 -> Standard ID: 0x425       DLC: 8  Data: 0x00 0x00 0x02 0x00 0x00 0x00 0x00 0x00
11:06:47.065 -> Standard ID: 0x356       DLC: 7  Data: 0x3F 0xFF 0x3F 0xFF 0x0B 0xB8 0x00
11:06:47.065 -> Standard ID: 0x418       DLC: 8  Data: 0x50 0xFF 0x45 0x10 0x00 0x18 0x01 0x00
11:06:47.065 -> Standard ID: 0x330       DLC: 8  Data: 0x08 0x00 0x00 0x00 0x00 0x00 0x00 0x7F
11:06:47.065 -> Standard ID: 0x390       DLC: 8  Data: 0x08 0x00 0x00 0x00 0x00 0x00 0x00 0x00
11:06:47.065 -> Standard ID: 0x520       DLC: 8  Data: 0x00 0x00 0x00 0x00 0x00 0x00 0x00 0x00
11:06:47.065 -> Standard ID: 0x425       DLC: 8  Data: 0x00 0x00 0x02 0x00 0x00 0x00 0x00 0x00
11:06:47.065 -> Standard ID: 0x363       DLC: 8  Data: 0x15 0x0C 0x11 0x6A 0x78 0x9A 0x03 0x08
11:06:47.065 -> Standard ID: 0x418       DLC: 8  Data: 0x50 0xFF 0x45 0x10 0x00 0x00 0x01 0x00
11:06:47.065 -> Standard ID: 0x7BC       DLC: 8  Data: 0x2E 0x00 0x00 0x00 0x00 0x00 0x00 0x00
11:06:47.065 -> Standard ID: 0x608       DLC: 8  Data: 0x3F 0x3C 0x00 0x45 0x00 0x00 0xBD 0x00
11:06:47.065 -> Standard ID: 0x212       DLC: 8  Data: 0x00 0x00 0xC7 0xD4 0xE7 0xE8 0x20 0xA0
11:06:47.065 -> Standard ID: 0x328       DLC: 8  Data: 0x00 0x00 0x80 0x00 0x00 0x00 0x00 0x00
11:06:47.065 -> Standard ID: 0x228       DLC: 8  Data: 0x00 0x00 0x00 0x7F 0xFF 0x00 0x80 0x00
11:06:47.065 -> Standard ID: 0x308       DLC: 8  Data: 0x40 0x06 0xB9 0x40 0x04 0x00 0x00 0x00
11:06:47.065 -> Standard ID: 0x328       DLC: 8  Data: 0x00 0x00 0x80 0x00 0x00 0x00 0x00 0x00
11:06:47.065 -> Standard ID: 0x228       DLC: 8  Data: 0x00 0x00 0x00 0x7F 0xFF 0x00 0x80 0x00
11:06:47.065 -> Standard ID: 0x349       DLC: 8  Data: 0x00 0x00 0x00 0x00 0x00 0x00 0x00 0x00
11:06:47.065 -> Standard ID: 0x425       DLC: 8  Data: 0x00 0x00 0x02 0x00 0x00 0x00 0x00 0x00
11:06:47.065 -> Standard ID: 0x208       DLC: 8  Data: 0x00 0x20 0x00 0xAC 0x00 0x00 0x00 0x00
11:06:47.065 -> Standard ID: 0x312       DLC: 8  Data: 0x27 0xD4 0x07 0xDA 0x08 0x77 0x07 0xA0
11:06:47.065 -> Standard ID: 0x218       DLC: 8  Data: 0x4A 0x1F 0xDD 0x40 0x00 0x08 0xFF 0x00
11:06:47.065 -> Standard ID: 0x315       DLC: 8  Data: 0x1D 0x00 0x00 0x00 0x00 0x00 0x00 0x00
11:06:47.065 -> Standard ID: 0x4A0       DLC: 8  Data: 0x2A 0xD3 0x33 0x19 0xFF 0xFF 0xFF 0x04
11:06:47.065 -> Standard ID: 0x338       DLC: 8  Data: 0x00 0x00 0x00 0x00 0x00 0x00 0x06 0x89
11:06:47.065 -> Standard ID: 0x424       DLC: 8  Data: 0x98 0x00 0x00 0x01 0xBA 0x9C 0x00 0x00
11:06:47.065 -> Standard ID: 0x7BC       DLC: 8  Data: 0x34 0x00 0x00 0x00 0x00 0x00 0x00 0x00
11:06:47.065 -> Standard ID: 0x208       DLC: 8  Data: 0x00 0x20 0x20 0xAB 0x00 0x00 0x00 0x00
11:06:47.065 -> Standard ID: 0x328       DLC: 8  Data: 0x00 0x00 0x80 0x00 0x00 0x00 0x00 0x00
11:06:47.065 -> Standard ID: 0x236       DLC: 8  Data: 0x0F 0xF2 0x10 0x00 0xE0 0x00 0x00 0x68
11:06:47.065 -> Standard ID: 0x22A       DLC: 8  Data: 0x00 0x00 0x40 0x00 0x00 0x00 0x07 0xFF
11:06:47.065 -> Standard ID: 0x424       DLC: 8  Data: 0x98 0x00 0x00 0x01 0xBA 0x9C 0x00 0x00
11:06:47.065 -> Standard ID: 0x361       DLC: 8  Data: 0x92 0x92 0x79 0x22 0x47 0xA2 0xC6 0x43
11:06:47.065 -> Standard ID: 0x210       DLC: 8  Data: 0x00 0x00 0x00 0x80 0xC0 0x00 0x00 0xFF
11:06:47.065 -> Standard ID: 0x315       DLC: 8  Data: 0x2D 0x00 0x00 0x00 0x00 0x00 0x00 0x00
11:06:47.065 -> Standard ID: 0x208       DLC: 8  Data: 0x00 0x20 0x10 0xAB 0x00 0x00 0x00 0x00
11:06:47.065 -> Standard ID: 0x215       DLC: 8  Data: 0x00 0x00 0x00 0x00 0x00 0x00 0x04 0x00
11:06:47.065 -> Standard ID: 0x6FF       DLC: 8  Data: 0x41 0x6A 0x06 0x94 0x60 0x00 0x00 0x00
11:06:47.065 -> Standard ID: 0x7BC       DLC: 8  Data: 0x38 0x00 0x00 0x00 0x00 0x00 0x00 0x00
11:06:47.065 -> Standard ID: 0x312       DLC: 8  Data: 0x47 0xD4 0x07 0xDD 0x08 0x76 0x07 0xA0
11:06:47.065 -> Standard ID: 0x6FB       DLC: 8  Data: 0x01 0x41 0x0C 0x04 0x81 0x00 0x11 0x80
11:06:47.065 -> Standard ID: 0x7BC       DLC: 8  Data: 0x39 0x00 0x00 0x00 0x00 0x00 0x00 0x00
11:06:47.065 -> Standard ID: 0x32B       DLC: 8  Data: 0x60 0x00 0x00 0x00 0x00 0x00 0x00 0x03
11:06:47.065 -> Standard ID: 0x208       DLC: 8  Data: 0x00 0x20 0x30 0xAA 0x00 0x00 0x00 0x00
11:06:47.065 -> Standard ID: 0x1B6       DLC: 8  Data: 0x00 0x00 0x00 0x00 0x00 0x00 0x00 0x00
11:06:47.065 -> Standard ID: 0x236       DLC: 8  Data: 0x0F 0xF2 0x10 0x00 0x90 0x00 0x00 0x20
11:06:47.065 -> Standard ID: 0x265       DLC: 8  Data: 0x05 0x7A 0x02 0x79 0xFF 0xFF 0x07 0xD4
11:06:47.065 -> Standard ID: 0x347       DLC: 8  Data: 0x09 0x00 0x00 0x17 0xA2 0x00 0x02 0x62
11:06:47.065 -> Standard ID: 0x390       DLC: 8  Data: 0x08 0x00 0x00 0x00 0x00 0x00 0x00 0x00
11:06:47.065 -> Standard ID: 0x418       DLC: 8  Data: 0x50 0xFF 0x45 0x10 0x00 0x18 0x01 0x00
11:06:47.414 -> Standard ID: 0x305       DLC: 8  Data: 0x00 0x00 0x00 0x00 0x00 0x00 0x00 0x00
11:06:47.414 -> Standard ID: 0x330       DLC: 8  Data: 0x00 0x00 0x00 0x00 0x00 0x00 0x00 0x7E
11:06:47.414 -> Standard ID: 0x418       DLC: 8  Data: 0x50 0xFF 0x45 0x10 0x00 0x18 0x01 0x00
11:06:47.414 -> Standard ID: 0x425       DLC: 8  Data: 0x00 0x00 0x02 0x00 0x00 0x00 0x00 0x00
11:06:47.414 -> Standard ID: 0x608       DLC: 8  Data: 0x3F 0x3C 0x00 0x48 0x00 0x00 0xE0 0x00
11:06:47.414 -> Standard ID: 0x212       DLC: 8  Data: 0x00 0x00 0x07 0xD3 0x67 0xE6 0x20 0xA0
11:06:47.414 -> Standard ID: 0x236       DLC: 8  Data: 0x0F 0xF2 0x10 0x00 0x00 0x00 0x00 0xF8
11:06:47.414 -> Standard ID: 0x356       DLC: 7  Data: 0x3F 0xFF 0x3F 0xFF 0x0B 0xB8 0x00
11:06:47.414 -> Standard ID: 0x255       DLC: 8  Data: 0x3F 0xFF 0x3F 0xFF 0x3F 0xFF 0xFF 0xFF
11:06:47.414 -> Standard ID: 0x6F0       DLC: 8  Data: 0x25 0x05 0x8A 0x00 0x00 0x00 0x60 0x80
11:06:47.414 -> Standard ID: 0x328       DLC: 8  Data: 0x00 0x00 0x80 0x00 0x00 0x00 0x00 0x00
11:06:47.414 -> Standard ID: 0x255       DLC: 8  Data: 0x3F 0xFF 0x3F 0xFF 0x3F 0xFF 0xFF 0xFF
11:06:47.414 -> Standard ID: 0x330       DLC: 8  Data: 0x10 0x00 0x00 0x00 0x00 0x00 0x00 0x7F
11:06:47.414 -> Standard ID: 0x390       DLC: 8  Data: 0x08 0x00 0x00 0x00 0x00 0x00 0x00 0x00
11:06:47.414 -> Standard ID: 0x308       DLC: 8  Data: 0x40 0x06 0x6C 0x40 0x05 0x00 0x00 0x00
11:06:47.414 -> Standard ID: 0x425       DLC: 8  Data: 0x00 0x00 0x02 0x00 0x00 0x00 0x00 0x00
11:06:47.414 -> Standard ID: 0x363       DLC: 8  Data: 0x15 0x0C 0x11 0x6A 0x79 0xB0 0x03 0x08
11:06:47.414 -> Standard ID: 0x200       DLC: 8  Data: 0x1E 0xDE 0x00 0x00 0x00 0x00 0x00 0x00
11:06:47.414 -> Standard ID: 0x2F1       DLC: 8  Data: 0x00 0x00 0x14 0x8F 0x00 0x00 0x00 0x00
11:06:47.414 -> Standard ID: 0x228       DLC: 8  Data: 0x00 0x00 0x00 0x7F 0xFF 0x00 0x00 0x80
11:06:47.414 -> Standard ID: 0x7BC       DLC: 8  Data: 0x02 0x01 0x07 0x61 0x00 0x00 0x00 0x04
11:06:47.414 -> Standard ID: 0x2F1       DLC: 8  Data: 0x00 0x00 0x14 0x8F 0x00 0x00 0x00 0x00
11:06:47.414 -> Standard ID: 0x228       DLC: 8  Data: 0x00 0x00 0x00 0x7F 0xFF 0x00 0x80 0x00
11:06:47.414 -> Standard ID: 0x236       DLC: 8  Data: 0x0F 0xF2 0x10 0x00 0xC0 0x00 0x00 0x58
11:06:47.414 -> Standard ID: 0x218       DLC: 8  Data: 0x4A 0x23 0xDD 0x40 0x00 0x08 0xFF 0x00
11:06:47.414 -> Standard ID: 0x228       DLC: 8  Data: 0x00 0x00 0x00 0x7F 0xFF 0x00 0x80 0x00
11:06:47.414 -> Standard ID: 0x300       DLC: 8  Data: 0x00 0x00 0x00 0x00 0x9F 0xFF 0x80 0x00
11:06:47.414 -> Standard ID: 0x338       DLC: 8  Data: 0x00 0x00 0x00 0x00 0x00 0x00 0x06 0x37
11:06:47.414 -> Standard ID: 0x424       DLC: 8  Data: 0x98 0x00 0x00 0x01 0xBA 0x9C 0x00 0x00
11:06:47.414 -> Standard ID: 0x7BC       DLC: 8  Data: 0x05 0x83 0x00 0xAC 0x3C 0x00 0x00 0x29
11:06:47.414 -> Standard ID: 0x22A       DLC: 8  Data: 0x00 0x00 0x40 0x00 0x00 0x00 0x07 0xFF
11:06:47.414 -> Standard ID: 0x6FF       DLC: 8  Data: 0x41 0x6A 0x06 0x94 0x60 0x00 0x00 0x00
11:06:47.414 -> Standard ID: 0x236       DLC: 8  Data: 0x0F 0xF2 0x10 0x00 0x20 0x00 0x00 0xC8
11:06:47.414 -> Standard ID: 0x210       DLC: 8  Data: 0x00 0x00 0x00 0x80 0xC0 0x00 0x00 0xFF
11:06:47.414 -> Standard ID: 0x328       DLC: 8  Data: 0x00 0x00 0x80 0x00 0x00 0x00 0x00 0x00
11:06:47.414 -> Standard ID: 0x236       DLC: 8  Data: 0x0F 0xF2 0x10 0x00 0x40 0x00 0x00 0x98
11:06:47.414 -> Standard ID: 0x210       DLC: 8  Data: 0x00 0x00 0x00 0x00 0x40 0x00 0x00 0xFF
11:06:47.414 -> Standard ID: 0x315       DLC: 8  Data: 0x35 0x00 0x00 0x00 0x00 0x00 0x00 0x00
11:06:47.414 -> Standard ID: 0x236       DLC: 8  Data: 0x0F 0xF2 0x10 0x00 0x60 0x00 0x00 0xA8
11:06:47.414 -> Standard ID: 0x312       DLC: 8  Data: 0x27 0xD1 0x07 0xD9 0x08 0x6F 0x07 0x9E
11:06:47.414 -> Standard ID: 0x424       DLC: 8  Data: 0x98 0x00 0x00 0x01 0xBA 0x9C 0x00 0x00
11:06:47.414 -> Standard ID: 0x347       DLC: 8  Data: 0x09 0x00 0x00 0x17 0xA2 0x00 0x02 0x62
11:06:47.414 -> Standard ID: 0x300       DLC: 8  Data: 0x00 0x80 0x00 0x00 0x1F 0xFF 0x80 0x00
11:06:47.414 -> Standard ID: 0x315       DLC: 8  Data: 0x7D 0x00 0x00 0x00 0x00 0x00 0x00 0x00
11:06:47.414 -> Standard ID: 0x154       DLC: 8  Data: 0x62 0x64 0xE0 0xFF 0xFF 0x04 0xA3 0x5F
11:06:47.414 -> Standard ID: 0x356       DLC: 7  Data: 0x3F 0xFF 0x3F 0xFF 0x0B 0xB8 0x00
11:06:47.414 -> Standard ID: 0x424       DLC: 8  Data: 0x98 0x00 0x00 0x01 0xBA 0x9C 0x00 0x00
11:06:47.414 -> Standard ID: 0x236       DLC: 8  Data: 0x0F 0xF2 0x10 0x00 0xC0 0x00 0x00 0x58
11:06:47.414 -> Standard ID: 0x356       DLC: 7  Data: 0x3F 0xFF 0x3F 0xFF 0x0B 0xB8 0x00
11:06:47.414 -> Standard ID: 0x315       DLC: 8  Data: 0x05 0x00 0x00 0x00 0x00 0x00 0x00 0x00
11:06:47.748 -> Standard ID: 0x236       DLC: 8  Data: 0x0F 0xF2 0x10 0x00 0xE0 0x00 0x00 0x68
11:06:47.748 -> Standard ID: 0x356       DLC: 7  Data: 0x3F 0xFF 0x3F 0xFF 0x0B 0xB8 0x00
11:06:47.748 -> Standard ID: 0x330       DLC: 8  Data: 0x00 0x00 0x00 0x00 0x00 0x00 0x00 0x7E
11:06:47.748 -> Standard ID: 0x328       DLC: 8  Data: 0x00 0x00 0x80 0x00 0x00 0x00 0x00 0x00
11:06:47.748 -> Standard ID: 0x356       DLC: 7  Data: 0x3F 0xFF 0x3F 0xFF 0x0B 0xB8 0x00
11:06:47.748 -> Standard ID: 0x315       DLC: 8  Data: 0x4D 0x00 0x00 0x00 0x00 0x00 0x00 0x00
11:06:47.748 -> Standard ID: 0x347       DLC: 8  Data: 0x09 0x00 0x00 0x17 0xA2 0x00 0x02 0x62
11:06:47.748 -> Standard ID: 0x390       DLC: 8  Data: 0x08 0x00 0x00 0x00 0x00 0x00 0x00 0x00
11:06:47.748 -> Standard ID: 0x424       DLC: 8  Data: 0x98 0x00 0x00 0x01 0xBA 0x9C 0x00 0x00
11:06:47.748 -> Standard ID: 0x154       DLC: 8  Data: 0x62 0x64 0xE0 0xFF 0xFF 0x04 0xA3 0x5F
11:06:47.748 -> Standard ID: 0x208       DLC: 8  Data: 0x00 0x20 0x30 0xA6 0x00 0x00 0x00 0x00
11:06:47.748 -> Standard ID: 0x218       DLC: 8  Data: 0x4A 0x2A 0xDD 0x40 0x00 0x08 0xFF 0x00
11:06:47.748 -> Standard ID: 0x236       DLC: 8  Data: 0x0F 0xF2 0x10 0x00 0x60 0x00 0x00 0xA8
11:06:47.748 -> Standard ID: 0x608       DLC: 8  Data: 0x3F 0x3C 0x00 0x4A 0x00 0x00 0xAF 0x00
11:06:47.748 -> Standard ID: 0x265       DLC: 8  Data: 0x05 0x07 0x02 0x46 0xFF 0xFF 0x07 0xD4
11:06:47.748 -> Standard ID: 0x236       DLC: 8  Data: 0x0F 0xF2 0x10 0x00 0x80 0x00 0x00 0x38
11:06:47.748 -> Standard ID: 0x236       DLC: 8  Data: 0x0F 0xF2 0x10 0x00 0x90 0x00 0x00 0x20
11:06:47.748 -> Standard ID: 0x185       DLC: 8  Data: 0x00 0x00 0x00 0x00 0x00 0x00 0x00 0x00
11:06:47.748 -> Standard ID: 0x208       DLC: 8  Data: 0x00 0x20 0x30 0xA5 0x00 0x00 0x00 0x00
11:06:47.748 -> Standard ID: 0x328       DLC: 8  Data: 0x00 0x00 0x80 0x00 0x00 0x00 0x00 0x00
11:06:47.748 -> Standard ID: 0x308       DLC: 8  Data: 0x40 0x05 0xEC 0x40 0x04 0x00 0x00 0x00
11:06:47.748 -> Standard ID: 0x347       DLC: 8  Data: 0x09 0x00 0x00 0x17 0xA2 0x00 0x02 0x62
11:06:47.748 -> Standard ID: 0x390       DLC: 8  Data: 0x08 0x00 0x00 0x00 0x00 0x00 0x00 0x00
11:06:47.748 -> Standard ID: 0x255       DLC: 8  Data: 0x3F 0xFF 0x3F 0xFF 0x3F 0xFF 0xFF 0xFF
11:06:47.748 -> Standard ID: 0x306       DLC: 8  Data: 0x00 0x00 0x00 0x00 0x00 0x00 0x00 0x00
11:06:47.748 -> Standard ID: 0x363       DLC: 8  Data: 0x15 0x0C 0x11 0x6A 0x7B 0x5A 0x03 0x08
11:06:47.748 -> Standard ID: 0x349       DLC: 8  Data: 0x00 0x00 0x00 0x00 0x00 0x00 0x00 0x00
11:06:47.748 -> Standard ID: 0x328       DLC: 8  Data: 0x00 0x00 0x80 0x00 0x00 0x00 0x00 0x00
11:06:47.748 -> Standard ID: 0x236       DLC: 8  Data: 0x0F 0xF2 0x10 0x00 0x10 0x00 0x00 0xE0
11:06:47.748 -> Standard ID: 0x349       DLC: 8  Data: 0x00 0x00 0x00 0x00 0x00 0x00 0x00 0x00
11:06:47.748 -> Standard ID: 0x2F1       DLC: 8  Data: 0x00 0x00 0x14 0x8F 0x00 0x00 0x00 0x00
11:06:47.748 -> Standard ID: 0x228       DLC: 8  Data: 0x00 0x00 0x00 0x7F 0xFF 0x00 0x80 0x00
11:06:47.748 -> Standard ID: 0x7BC       DLC: 8  Data: 0x17 0x00 0x00 0x00 0x00 0x00 0x00 0x00
11:06:47.748 -> Standard ID: 0x2F1       DLC: 8  Data: 0x00 0x00 0x14 0x8F 0x00 0x00 0x00 0x00
11:06:47.748 -> Standard ID: 0x200       DLC: 8  Data: 0x00 0x9F 0x00 0x00 0x00 0x00 0x00 0x00
11:06:47.748 -> Standard ID: 0x236       DLC: 8  Data: 0x0F 0xF2 0x10 0x00 0x60 0x00 0x00 0xA8
11:06:47.748 -> Standard ID: 0x218       DLC: 8  Data: 0xCA 0x2A 0xDD 0x40 0x00 0x88 0xFF 0x00
11:06:47.748 -> Standard ID: 0x311       DLC: 8  Data: 0x00 0x76 0xBC 0x00 0x00 0x78 0x00 0x00
11:06:47.748 -> Standard ID: 0x7BC       DLC: 8  Data: 0x19 0x00 0x07 0x61 0x61 0x36 0x12 0x00
11:06:47.748 -> Standard ID: 0x338       DLC: 8  Data: 0x00 0x00 0x00 0x00 0x00 0x00 0x05 0xB3
11:06:47.748 -> Standard ID: 0x315       DLC: 8  Data: 0x7D 0x00 0x00 0x00 0x00 0x00 0x00 0x00
11:06:47.748 -> Standard ID: 0x236       DLC: 8  Data: 0x0F 0xF2 0x10 0x00 0xA0 0x00 0x00 0x08
11:06:47.748 -> Standard ID: 0x200       DLC: 8  Data: 0x00 0x5F 0x00 0x00 0x00 0x00 0x00 0x00
11:06:47.748 -> Standard ID: 0x328       DLC: 8  Data: 0x00 0x00 0x80 0x00 0x00 0x00 0x00 0x00
11:06:47.748 -> Standard ID: 0x236       DLC: 8  Data: 0x0F 0xF2 0x10 0x00 0xC0 0x00 0x00 0x58
11:06:47.748 -> Standard ID: 0x210       DLC: 8  Data: 0x00 0x00 0x00 0x00 0x40 0x00 0x00 0xFF
11:06:47.748 -> Standard ID: 0x315       DLC: 8  Data: 0x05 0x00 0x00 0x00 0x00 0x00 0x00 0x00
11:06:47.748 -> Standard ID: 0x236       DLC: 8  Data: 0x0F 0xF2 0x10 0x00 0xE0 0x00 0x00 0x68
11:06:47.748 -> Standard ID: 0x312       DLC: 8  Data: 0x27 0xD1 0x07 0xD9 0x08 0x69 0x07 0x9B
11:06:48.098 -> Standard ID: 0x424       DLC: 8  Data: 0x98 0x00 0x00 0x01 0xBA 0x9C 0x00 0x00
11:06:48.098 -> Standard ID: 0x361       DLC: 8  Data: 0x92 0x92 0x79 0x22 0xB7 0xA2 0xC6 0x43
11:06:48.098 -> Standard ID: 0x308       DLC: 8  Data: 0x40 0x05 0xB0 0x00 0x05 0x00 0x00 0x00
11:06:48.098 -> Standard ID: 0x315       DLC: 8  Data: 0x4D 0x00 0x00 0x00 0x00 0x00 0x00 0x00
11:06:48.098 -> Standard ID: 0x330       DLC: 8  Data: 0x18 0x00 0x00 0x00 0x00 0x00 0x00 0x7E
11:06:48.098 -> Standard ID: 0x415       DLC: 8  Data: 0x00 0x00 0x00 0x00 0x00 0x00 0xCE 0x00
11:06:48.098 -> Standard ID: 0x424       DLC: 8  Data: 0x98 0x00 0x00 0x01 0xBA 0x9C 0x00 0x00
11:06:48.098 -> Standard ID: 0x236       DLC: 8  Data: 0x0F 0xF2 0x10 0x00 0x40 0x00 0x00 0x98
11:06:48.098 -> Standard ID: 0x608       DLC: 8  Data: 0x3F 0x3C 0x00 0x4E 0x00 0x00 0xB3 0x00
11:06:48.098 -> Standard ID: 0x200       DLC: 8  Data: 0x00 0x9F 0x00 0x00 0x00 0x00 0x00 0x00
11:06:48.098 -> Standard ID: 0x328       DLC: 8  Data: 0x00 0x00 0x80 0x00 0x00 0x00 0x00 0x00
11:06:48.098 -> Standard ID: 0x236       DLC: 8  Data: 0x0F 0xF2 0x10 0x00 0x70 0x00 0x00 0xB0
11:06:48.098 -> Standard ID: 0x218       DLC: 8  Data: 0xCA 0x22 0xDD 0x40 0x00 0x08 0xFF 0x00
11:06:48.098 -> Standard ID: 0x328       DLC: 8  Data: 0x00 0x00 0x80 0x00 0x00 0x00 0x00 0x00
11:06:48.098 -> Standard ID: 0x236       DLC: 8  Data: 0x0F 0xF2 0x10 0x00 0x90 0x00 0x00 0x20
11:06:48.098 -> Standard ID: 0x265       DLC: 8  Data: 0x04 0xB2 0x02 0x21 0xFF 0xFF 0x07 0xD4
11:06:48.098 -> Standard ID: 0x425       DLC: 8  Data: 0x00 0x00 0x02 0x00 0x00 0x00 0x00 0x00
11:06:48.098 -> Standard ID: 0x200       DLC: 8  Data: 0x00 0x1E 0x00 0x00 0x00 0x00 0x00 0x00
11:06:48.098 -> Standard ID: 0x265       DLC: 8  Data: 0x04 0xA5 0x02 0x1C 0xFF 0xFF 0x07 0xD4
11:06:48.098 -> Standard ID: 0x1D0       DLC: 8  Data: 0x00 0x1F 0x1E 0x60 0x0E 0x64 0x0E 0x00
11:06:48.098 -> Standard ID: 0x236       DLC: 8  Data: 0x0F 0xF2 0x10 0x00 0xD0 0x00 0x00 0x40
11:06:48.098 -> Standard ID: 0x308       DLC: 8  Data: 0x40 0x05 0x96 0x40 0x05 0x00 0x00 0x00
11:06:48.098 -> Standard ID: 0x2F1       DLC: 8  Data: 0x00 0x00 0x14 0x8F 0x00 0x00 0x00 0x00
11:06:48.098 -> Standard ID: 0x236       DLC: 8  Data: 0x0F 0xF2 0x10 0x00 0xF0 0x00 0x00 0x70
11:06:48.098 -> Standard ID: 0x312       DLC: 8  Data: 0x27 0xD1 0x07 0xD8 0x08 0x66 0x07 0x9B
11:06:48.098 -> Standard ID: 0x200       DLC: 8  Data: 0x00 0xDE 0x00 0x00 0x00 0x00 0x00 0x00
11:06:48.098 -> Standard ID: 0x328       DLC: 8  Data: 0x00 0x00 0x80 0x00 0x00 0x00 0x00 0x00
11:06:48.098 -> Standard ID: 0x418       DLC: 8  Data: 0x50 0xFF 0x45 0x10 0x00 0x00 0x01 0x00
11:06:48.098 -> Standard ID: 0x2F1       DLC: 8  Data: 0x00 0x00 0x14 0x8F 0x00 0x00 0x00 0x00
11:06:48.098 -> Standard ID: 0x236       DLC: 8  Data: 0x0F 0xF2 0x10 0x00 0x30 0x00 0x00 0xD0
11:06:48.098 -> Standard ID: 0x7BC       DLC: 8  Data: 0x27 0x00 0x00 0x00 0x00 0x00 0x00 0x00
11:06:48.098 -> Standard ID: 0x2F1       DLC: 8  Data: 0x00 0x00 0x14 0x8F 0x00 0x00 0x00 0x00
11:06:48.098 -> Standard ID: 0x236       DLC: 8  Data: 0x0F 0xF2 0x10 0x00 0x50 0x00 0x00 0x80
11:06:48.098 -> Standard ID: 0x7BC       DLC: 8  Data: 0x28 0x00 0x00 0x00 0x00 0x00 0x00 0x00
11:06:48.098 -> Standard ID: 0x328       DLC: 8  Data: 0x00 0x00 0x80 0x00 0x00 0x00 0x00 0x00
11:06:48.098 -> Standard ID: 0x228       DLC: 8  Data: 0x00 0x00 0x00 0x7F 0xFF 0x00 0x00 0x80
11:06:48.098 -> Standard ID: 0x236       DLC: 8  Data: 0x0F 0xF2 0x10 0x00 0x80 0x00 0x00 0x38
11:06:48.098 -> Standard ID: 0x218       DLC: 8  Data: 0x4A 0x24 0xDD 0x40 0x00 0x88 0xFF 0x00
11:06:48.098 -> Standard ID: 0x228       DLC: 8  Data: 0x00 0x00 0x00 0x7F 0xFF 0x00 0x00 0x80
11:06:48.098 -> Standard ID: 0x236       DLC: 8  Data: 0x0F 0xF2 0x10 0x00 0xA0 0x00 0x00 0x08
11:06:48.098 -> Standard ID: 0x210       DLC: 8  Data: 0x00 0x00 0x00 0x80 0xC0 0x00 0x00 0xFF
11:06:48.098 -> Standard ID: 0x315       DLC: 8  Data: 0x41 0x00 0x00 0x00 0x00 0x00 0x00 0x00
11:06:48.098 -> Standard ID: 0x328       DLC: 8  Data: 0x00 0x00 0x80 0x00 0x00 0x00 0x00 0x00
11:06:48.098 -> Standard ID: 0x338       DLC: 8  Data: 0x00 0x00 0x00 0x00 0x00 0x00 0x05 0x62
11:06:48.098 -> Standard ID: 0x315       DLC: 8  Data: 0x05 0x00 0x00 0x00 0x00 0x00 0x00 0x00
11:06:48.098 -> Standard ID: 0x236       DLC: 8  Data: 0x0F 0xF2 0x10 0x00 0xE0 0x00 0x00 0x68
11:06:48.098 -> Standard ID: 0x312       DLC: 8  Data: 0x07 0xD5 0x07 0xD9 0x08 0x65 0x07 0x9B
11:06:48.098 -> Standard ID: 0x424       DLC: 8  Data: 0x98 0x00 0x00 0x01 0xBA 0x9C 0x00 0x00
11:06:48.098 -> Standard ID: 0x236       DLC: 8  Data: 0x0F 0xF2 0x10 0x00 0x00 0x00 0x00 0xF8
11:06:48.098 -> Standard ID: 0x22A       DLC: 8  Data: 0x00 0x00 0x40 0x00 0x00 0x00 0x07 0xFF
11:06:48.432 -> Standard ID: 0x328       DLC: 8  Data: 0x00 0x00 0x80 0x00 0x00 0x00 0x00 0x00
11:06:48.432 -> Standard ID: 0x236       DLC: 8  Data: 0x0F 0xF2 0x10 0x00 0x20 0x00 0x00 0xC8
11:06:48.432 -> Standard ID: 0x338       DLC: 8  Data: 0x00 0x00 0x00 0x00 0x00 0x00 0x05 0x58
11:06:48.432 -> Standard ID: 0x424       DLC: 8  Data: 0x98 0x00 0x00 0x01 0xBA 0x9C 0x00 0x00
11:06:48.432 -> Standard ID: 0x236       DLC: 8  Data: 0x0F 0xF2 0x10 0x00 0x40 0x00 0x00 0x98
11:06:48.432 -> Standard ID: 0x312       DLC: 8  Data: 0x67 0xD6 0x07 0xD9 0x08 0x65 0x07 0x9B
11:06:48.432 -> Standard ID: 0x6F3       DLC: 8  Data: 0x01 0x00 0x00 0x00 0x00 0x00 0x00 0x09
11:06:48.432 -> Standard ID: 0x236       DLC: 8  Data: 0x0F 0xF2 0x10 0x00 0x60 0x00 0x00 0xA8
11:06:48.432 -> Standard ID: 0x328       DLC: 8  Data: 0x00 0x00 0x80 0x00 0x00 0x00 0x00 0x00
11:06:48.432 -> Standard ID: 0x424       DLC: 8  Data: 0x98 0x00 0x00 0x01 0xBA 0x9C 0x00 0x00
11:06:48.432 -> Standard ID: 0x347       DLC: 8  Data: 0x09 0x00 0x00 0x17 0xA2 0x00 0x02 0x62
11:06:48.432 -> Standard ID: 0x236       DLC: 8  Data: 0x0F 0xF2 0x10 0x00 0x90 0x00 0x00 0x20
11:06:48.432 -> Standard ID: 0x218       DLC: 8  Data: 0x4A 0x25 0xDD 0x40 0x00 0x08 0xFF 0x00
11:06:48.432 -> Standard ID: 0x451       DLC: 8  Data: 0xFD 0x13 0x3F 0xFF 0xFF 0xFF 0xFF 0xFF
11:06:48.432 -> Standard ID: 0x236       DLC: 8  Data: 0x0F 0xF2 0x10 0x00 0xB0 0x00 0x00 0x10
11:06:48.432 -> Standard ID: 0x308       DLC: 8  Data: 0x40 0x05 0x6C 0x00 0x04 0x00 0x00 0x00
11:06:48.432 -> Standard ID: 0x328       DLC: 8  Data: 0x00 0x00 0x80 0x00 0x00 0x00 0x00 0x00
11:06:48.432 -> Standard ID: 0x236       DLC: 8  Data: 0x0F 0xF2 0x10 0x00 0xD0 0x00 0x00 0x40
11:06:48.432 -> Standard ID: 0x308       DLC: 8  Data: 0x40 0x05 0x6C 0x40 0x05 0x00 0x00 0x00
11:06:48.432 -> Standard ID: 0x2F1       DLC: 8  Data: 0x00 0x00 0x14 0x8F 0x00 0x00 0x00 0x00
11:06:48.432 -> Standard ID: 0x236       DLC: 8  Data: 0x0F 0xF2 0x10 0x00 0xF0 0x00 0x00 0x70
11:06:48.432 -> Standard ID: 0x308       DLC: 8  Data: 0x40 0x05 0x63 0x00 0x04 0x00 0x00 0x00
11:06:48.432 -> Standard ID: 0x2F1       DLC: 8  Data: 0x00 0x00 0x14 0x8F 0x00 0x00 0x00 0x00
11:06:48.432 -> Standard ID: 0x236       DLC: 8  Data: 0x0F 0xF2 0x10 0x00 0x10 0x00 0x00 0xE0
11:06:48.432 -> Standard ID: 0x300       DLC: 8  Data: 0x00 0x80 0x00 0x00 0x1F 0xFF 0x80 0x00
11:06:48.432 -> Standard ID: 0x2F1       DLC: 8  Data: 0x00 0x00 0x14 0x8F 0x00 0x00 0x00 0x00
11:06:48.432 -> Standard ID: 0x330       DLC: 8  Data: 0x08 0x00 0x00 0x00 0x00 0x00 0x00 0x7F
11:06:48.432 -> Standard ID: 0x349       DLC: 8  Data: 0x00 0x00 0x00 0x00 0x00 0x00 0x00 0x00
11:06:48.432 -> Standard ID: 0x2F1       DLC: 8  Data: 0x00 0x00 0x14 0x8F 0x00 0x00 0x00 0x00
11:06:48.432 -> Standard ID: 0x363       DLC: 8  Data: 0x15 0x0C 0x11 0x6A 0x7D 0x1A 0x03 0x08
11:06:48.432 -> Standard ID: 0x7BC       DLC: 8  Data: 0x38 0x00 0x00 0x00 0x00 0x00 0x00 0x00
11:06:48.432 -> Standard ID: 0x2F1       DLC: 8  Data: 0x00 0x00 0x14 0x8F 0x00 0x00 0x00 0x00
11:06:48.432 -> Standard ID: 0x328       DLC: 8  Data: 0x00 0x00 0x80 0x00 0x00 0x00 0x00 0x00
11:06:48.432 -> Standard ID: 0x7BC       DLC: 8  Data: 0x39 0x00 0x00 0x00 0x00 0x00 0x00 0x00
11:06:48.432 -> Standard ID: 0x330       DLC: 8  Data: 0x10 0x00 0x00 0x00 0x00 0x00 0x00 0x7F
11:06:48.432 -> Standard ID: 0x228       DLC: 8  Data: 0x00 0x00 0x00 0x7F 0xFF 0x00 0x00 0x80
11:06:48.432 -> Standard ID: 0x236       DLC: 8  Data: 0x0F 0xF2 0x10 0x00 0xA0 0x00 0x00 0x08
11:06:48.432 -> Standard ID: 0x308       DLC: 8  Data: 0x40 0x05 0x5E 0x40 0x04 0x00 0x00 0x00
11:06:48.432 -> Standard ID: 0x228       DLC: 8  Data: 0x00 0x00 0x00 0x7F 0xFF 0x00 0x80 0x00
11:06:48.432 -> Standard ID: 0x236       DLC: 8  Data: 0x0F 0xF2 0x10 0x00 0xC0 0x00 0x00 0x58
11:06:48.432 -> Standard ID: 0x218       DLC: 8  Data: 0x4A 0x25 0xDD 0x40 0x00 0x08 0xFF 0x00
11:06:48.432 -> Standard ID: 0x315       DLC: 8  Data: 0x05 0x00 0x00 0x00 0x00 0x00 0x00 0x00
11:06:48.432 -> Standard ID: 0x236       DLC: 8  Data: 0x0F 0xF2 0x10 0x00 0xE0 0x00 0x00 0x68
11:06:48.432 -> Standard ID: 0x312       DLC: 8  Data: 0x27 0xD8 0x07 0xD6 0x08 0x64 0x07 0x9B
11:06:48.432 -> Standard ID: 0x424       DLC: 8  Data: 0x98 0x00 0x00 0x01 0xBA 0x9C 0x00 0x00
11:06:48.432 -> Standard ID: 0x236       DLC: 8  Data: 0x0F 0xF2 0x10 0x00 0x00 0x00 0x00 0xF8
11:06:48.432 -> Standard ID: 0x365       DLC: 8  Data: 0x03 0xFF 0xFF 0x04 0xE1 0x00 0x00 0xC8
11:06:48.432 -> Standard ID: 0x315       DLC: 8  Data: 0x4D 0x00 0x00 0x00 0x00 0x00 0x00 0x00
11:06:48.432 -> Standard ID: 0x328       DLC: 8  Data: 0x00 0x00 0x80 0x00 0x00 0x00 0x00 0x00
11:06:48.432 -> Standard ID: 0x356       DLC: 7  Data: 0x3F 0xFF 0x3F 0xFF 0x0B 0xB8 0x00
11:06:48.783 -> Standard ID: 0x424       DLC: 8  Data: 0x98 0x00 0x00 0x01 0xBA 0x9C 0x00 0x00
11:06:48.783 -> Standard ID: 0x236       DLC: 8  Data: 0x0F 0xF2 0x10 0x00 0x40 0x00 0x00 0x98
11:06:48.783 -> Standard ID: 0x356       DLC: 7  Data: 0x3F 0xFF 0x3F 0xFF 0x0B 0xB8 0x00
11:06:48.783 -> Standard ID: 0x315       DLC: 8  Data: 0x55 0x00 0x00 0x00 0x00 0x00 0x00 0x00
11:06:48.783 -> Standard ID: 0x236       DLC: 8  Data: 0x0F 0xF2 0x10 0x00 0x60 0x00 0x00 0xA8
11:06:48.783 -> Standard ID: 0x22A       DLC: 8  Data: 0x00 0x00 0x40 0x00 0x00 0x00 0x07 0xFF
11:06:48.783 -> Standard ID: 0x424       DLC: 8  Data: 0x98 0x00 0x00 0x01 0xBA 0x9C 0x00 0x00
11:06:48.783 -> Standard ID: 0x236       DLC: 8  Data: 0x0F 0xF2 0x10 0x00 0x80 0x00 0x00 0x38
11:06:48.783 -> Standard ID: 0x330       DLC: 8  Data: 0x08 0x00 0x00 0x00 0x00 0x00 0x00 0x7F
11:06:48.783 -> Standard ID: 0x6FF       DLC: 8  Data: 0x41 0x6A 0x06 0x94 0x60 0x00 0x00 0x00
11:06:48.783 -> Standard ID: 0x236       DLC: 8  Data: 0x0F 0xF2 0x10 0x00 0xA0 0x00 0x00 0x08
11:06:48.783 -> Standard ID: 0x608       DLC: 8  Data: 0x3E 0x3C 0x00 0x50 0x00 0x00 0xA4 0x00
11:06:48.783 -> Standard ID: 0x6FB       DLC: 8  Data: 0x01 0x41 0x0C 0x04 0x81 0x00 0x11 0x80
11:06:48.783 -> Standard ID: 0x236       DLC: 8  Data: 0x0F 0xF2 0x10 0x00 0xC0 0x00 0x00 0x58
11:06:48.783 -> Standard ID: 0x520       DLC: 8  Data: 0x00 0x00 0x00 0x00 0x00 0x00 0x00 0x00
11:06:48.783 -> Standard ID: 0x255       DLC: 8  Data: 0x3F 0xFF 0x3F 0xFF 0x3F 0xFF 0xFF 0xFF
11:06:48.783 -> Standard ID: 0x330       DLC: 8  Data: 0x10 0x00 0x00 0x00 0x00 0x00 0x00 0x7F
11:06:48.783 -> Standard ID: 0x328       DLC: 8  Data: 0x00 0x00 0x80 0x00 0x00 0x00 0x00 0x00
11:06:48.783 -> Standard ID: 0x308       DLC: 8  Data: 0x40 0x05 0x5C 0x00 0x04 0x00 0x00 0x00
11:06:48.783 -> Standard ID: 0x347       DLC: 8  Data: 0x09 0x00 0x00 0x17 0xA2 0x00 0x02 0x62
11:06:48.783 -> Standard ID: 0x236       DLC: 8  Data: 0x0F 0xF2 0x10 0x00 0x10 0x00 0x00 0xE0
11:06:48.783 -> Standard ID: 0x218       DLC: 8  Data: 0x4A 0x25 0xDD 0x40 0x00 0x08 0xFF 0x00
11:06:48.783 -> Standard ID: 0x2F1       DLC: 8  Data: 0x00 0x00 0x14 0x8F 0x00 0x00 0x00 0x00
11:06:48.783 -> Standard ID: 0x236       DLC: 8  Data: 0x0F 0xF2 0x10 0x00 0x30 0x00 0x00 0xD0
11:06:48.783 -> Standard ID: 0x265       DLC: 8  Data: 0x04 0x57 0x01 0xF8 0xFF 0xFF 0x07 0xD4
11:06:48.783 -> Standard ID: 0x2F1       DLC: 8  Data: 0x00 0x00 0x14 0x8F 0x00 0x00 0x00 0x00
11:06:48.783 -> Standard ID: 0x236       DLC: 8  Data: 0x0F 0xF2 0x10 0x00 0x50 0x00 0x00 0x80
11:06:48.783 -> Standard ID: 0x418       DLC: 8  Data: 0x50 0xFF 0x45 0x10 0x00 0x18 0x01 0x00
11:06:48.783 -> Standard ID: 0x425       DLC: 8  Data: 0x00 0x00 0x02 0x00 0x00 0x00 0x00 0x00
11:06:48.783 -> Standard ID: 0x236       DLC: 8  Data: 0x0F 0xF2 0x10 0x00 0x70 0x00 0x00 0xB0
11:06:48.783 -> Standard ID: 0x7BC       DLC: 8  Data: 0x08 0x00 0x00 0x00 0x00 0x0A 0x00 0x00
11:06:48.783 -> Standard ID: 0x6F0       DLC: 8  Data: 0x25 0x05 0x8A 0x00 0x00 0x00 0x60 0x80
11:06:48.783 -> Standard ID: 0x330       DLC: 8  Data: 0x08 0x00 0x00 0x00 0x00 0x00 0x00 0x7F
11:06:48.783 -> Standard ID: 0x7BC       DLC: 8  Data: 0x09 0x00 0x02 0x00 0x00 0x00 0x00 0x00
11:06:48.783 -> Standard ID: 0x425       DLC: 8  Data: 0x00 0x00 0x02 0x00 0x00 0x00 0x00 0x00
11:06:48.783 -> Standard ID: 0x236       DLC: 8  Data: 0x0F 0xF2 0x10 0x00 0xB0 0x00 0x00 0x10
11:06:48.783 -> Standard ID: 0x520       DLC: 8  Data: 0x00 0x00 0x00 0x00 0x00 0x00 0x00 0x00
11:06:48.783 -> Standard ID: 0x210       DLC: 8  Data: 0x00 0x00 0x00 0x00 0x40 0x00 0x00 0xFF
11:06:48.783 -> Standard ID: 0x363       DLC: 8  Data: 0x15 0x0C 0x11 0x6A 0x7C 0xB0 0x03 0x08
11:06:48.783 -> Standard ID: 0x418       DLC: 8  Data: 0x50 0xFF 0x45 0x10 0x00 0x18 0x01 0x00
11:06:48.783 -> Standard ID: 0x330       DLC: 8  Data: 0x08 0x00 0x00 0x00 0x00 0x00 0x00 0x7F
11:06:48.783 -> Standard ID: 0x328       DLC: 8  Data: 0x00 0x00 0x80 0x00 0x00 0x00 0x00 0x00
11:06:48.783 -> Standard ID: 0x418       DLC: 8  Data: 0x50 0xFF 0x45 0x10 0x00 0x00 0x01 0x00
11:06:48.783 -> Standard ID: 0x312       DLC: 8  Data: 0x47 0xDD 0x07 0xDB 0x08 0x65 0x07 0x9B
11:06:48.783 -> Standard ID: 0x228       DLC: 8  Data: 0x00 0x00 0x00 0x7F 0xFF 0x00 0x00 0x80
11:06:48.783 -> Standard ID: 0x236       DLC: 8  Data: 0x0F 0xF2 0x10 0x00 0x20 0x00 0x00 0xC8
11:06:48.783 -> Standard ID: 0x218       DLC: 8  Data: 0xCA 0x2A 0xDD 0x40 0x00 0x88 0xFF 0x00
11:06:48.783 -> Standard ID: 0x315       DLC: 8  Data: 0x11 0x00 0x00 0x00 0x00 0x00 0x00 0x00
11:06:48.783 -> Standard ID: 0x330       DLC: 8  Data: 0x00 0x00 0x00 0x00 0x00 0x00 0x00 0x7E
11:06:49.084 -> Standard ID: 0x328       DLC: 8  Data: 0x00 0x00 0x80 0x00 0x00 0x00 0x00 0x00
11:06:49.084 -> Standard ID: 0x315       DLC: 8  Data: 0x55 0x00 0x00 0x00 0x00 0x00 0x00 0x00
11:06:49.084 -> Standard ID: 0x236       DLC: 8  Data: 0x0F 0xF2 0x10 0x00 0x60 0x00 0x00 0xA8
11:06:49.084 -> Standard ID: 0x415       DLC: 8  Data: 0x00 0x00 0x00 0x00 0x00 0x00 0xCE 0x00
11:06:49.084 -> Standard ID: 0x6FF       DLC: 8  Data: 0x41 0x6A 0x06 0x94 0x60 0x00 0x00 0x00
11:06:49.084 -> Standard ID: 0x236       DLC: 8  Data: 0x0F 0xF2 0x10 0x00 0x80 0x00 0x00 0x38
11:06:49.084 -> Standard ID: 0x365       DLC: 8  Data: 0x03 0xFF 0xFF 0x04 0xE1 0x00 0x00 0xC8
11:06:49.084 -> Standard ID: 0x6FB       DLC: 8  Data: 0x01 0x41 0x0C 0x04 0x81 0x00 0x11 0x80
11:06:49.084 -> Standard ID: 0x328       DLC: 8  Data: 0x00 0x00 0x80 0x00 0x00 0x00 0x00 0x00
11:06:49.084 -> Standard ID: 0x22A       DLC: 8  Data: 0x00 0x18 0x80 0x00 0x00 0x00 0x07 0xFF
11:06:49.084 -> Standard ID: 0x212       DLC: 8  Data: 0x00 0x00 0xC7 0xE2 0xA8 0x01 0x20 0x9C
11:06:49.084 -> Standard ID: 0x236       DLC: 8  Data: 0x0F 0xF2 0x10 0x00 0xC0 0x00 0x00 0x58
11:06:49.084 -> Standard ID: 0x22A       DLC: 8  Data: 0x00 0x18 0x80 0x00 0x00 0x00 0x07 0xFF
11:06:49.084 -> Standard ID: 0x255       DLC: 8  Data: 0x3F 0xFF 0x3F 0xFF 0x3F 0xFF 0xFF 0xFF
11:06:49.084 -> Standard ID: 0x361       DLC: 8  Data: 0x92 0x92 0x79 0x23 0x17 0xA4 0xC6 0x43
11:06:49.084 -> Standard ID: 0x330       DLC: 8  Data: 0x08 0x00 0x00 0x00 0x00 0x00 0x00 0x7F
11:06:49.084 -> Standard ID: 0x308       DLC: 8  Data: 0x40 0x05 0x92 0x40 0x04 0x00 0x00 0x00
11:06:49.084 -> Standard ID: 0x2F1       DLC: 8  Data: 0x00 0x00 0x14 0x8F 0x00 0x00 0x00 0x00
11:06:49.084 -> Standard ID: 0x415       DLC: 8  Data: 0x00 0x00 0x00 0x00 0x00 0x00 0xCE 0x00
11:06:49.084 -> Standard ID: 0x349       DLC: 8  Data: 0x00 0x00 0x00 0x00 0x00 0x00 0x00 0x00
11:06:49.084 -> Standard ID: 0x2F1       DLC: 8  Data: 0x00 0x00 0x14 0x8F 0x00 0x00 0x00 0x00
11:06:49.084 -> Standard ID: 0x236       DLC: 8  Data: 0x0F 0xF2 0x10 0x00 0x30 0x00 0x00 0xD0
11:06:49.084 -> Standard ID: 0x218       DLC: 8  Data: 0xCA 0x2B 0xDD 0x40 0x00 0x08 0xFF 0x00
11:06:49.084 -> Standard ID: 0x330       DLC: 8  Data: 0x08 0x00 0x00 0x00 0x00 0x00 0x00 0x7F
11:06:49.084 -> Standard ID: 0x236       DLC: 8  Data: 0x0F 0xF2 0x10 0x00 0x50 0x00 0x00 0x80
11:06:49.084 -> Standard ID: 0x265       DLC: 8  Data: 0x04 0x7A 0x02 0x06 0xFF 0xFF 0x07 0xD4
11:06:49.084 -> Standard ID: 0x425       DLC: 8  Data: 0x00 0x00 0x02 0x00 0x00 0x00 0x00 0x00
11:06:49.084 -> Standard ID: 0x236       DLC: 8  Data: 0x0F 0xF2 0x10 0x00 0x70 0x00 0x00 0xB0
11:06:49.084 -> Standard ID: 0x418       DLC: 8  Data: 0x50 0xFF 0x45 0x10 0x00 0x00 0x01 0x00
11:06:49.084 -> Standard ID: 0x347       DLC: 8  Data: 0x09 0x00 0x00 0x17 0xA2 0x00 0x02 0x62
11:06:49.084 -> Standard ID: 0x236       DLC: 8  Data: 0x0F 0xF2 0x10 0x00 0x90 0x00 0x00 0x20
11:06:49.084 -> Standard ID: 0x418       DLC: 8  Data: 0x50 0xFF 0x45 0x10 0x00 0x00 0x01 0x00
11:06:49.084 -> Standard ID: 0x425       DLC: 8  Data: 0x00 0x00 0x02 0x00 0x00 0x00 0x00 0x00
11:06:49.084 -> Standard ID: 0x363       DLC: 8  Data: 0x15 0x0D 0x11 0x6A 0x7C 0x70 0x03 0x08
11:06:49.084 -> Standard ID: 0x7BC       DLC: 8  Data: 0x1A 0x6E 0x80 0x00 0x17 0x3C 0x2D 0x00
11:06:49.084 -> Standard ID: 0x210       DLC: 8  Data: 0x00 0x00 0x00 0x00 0x40 0x00 0x00 0xFF
11:06:49.084 -> Standard ID: 0x236       DLC: 8  Data: 0x0F 0xF2 0x10 0x00 0xD0 0x00 0x00 0x40
11:06:49.084 -> Standard ID: 0x418       DLC: 8  Data: 0x50 0xFF 0x45 0x10 0x00 0x18 0x01 0x00
11:06:49.084 -> Standard ID: 0x308       DLC: 8  Data: 0x40 0x05 0xC6 0x00 0x04 0x00 0x00 0x00
11:06:49.084 -> Standard ID: 0x330       DLC: 8  Data: 0x10 0x00 0x00 0x00 0x00 0x00 0x00 0x7F
11:06:49.084 -> Standard ID: 0x328       DLC: 8  Data: 0x00 0x00 0x80 0x00 0x00 0x00 0x00 0x00
11:06:49.084 -> Standard ID: 0x308       DLC: 8  Data: 0x40 0x05 0xD1 0x40 0x05 0x00 0x00 0x00
11:06:49.084 -> Standard ID: 0x330       DLC: 8  Data: 0x10 0x00 0x00 0x00 0x00 0x00 0x00 0x7F
11:06:49.084 -> Standard ID: 0x418       DLC: 8  Data: 0x50 0xFF 0x45 0x10 0x00 0x00 0x01 0x00
11:06:49.084 -> Standard ID: 0x356       DLC: 7  Data: 0x3F 0xFF 0x3F 0xFF 0x0B 0xB8 0x00
11:06:49.084 -> Standard ID: 0x228       DLC: 8  Data: 0x00 0x00 0x00 0x7F 0xFF 0x00 0x80 0x00
11:06:49.084 -> Standard ID: 0x520       DLC: 8  Data: 0x00 0x00 0x00 0x00 0x00 0x00 0x00 0x00
11:06:49.084 -> Standard ID: 0x208       DLC: 8  Data: 0x00 0x20 0x30 0x99 0x00 0x00 0x00 0x00
11:06:49.084 -> Standard ID: 0x228       DLC: 8  Data: 0x00 0x00 0x00 0x7F 0xFF 0x00 0x80 0x00
11:06:49.084 -> Standard ID: 0x236       DLC: 8  Data: 0x0F 0xF2 0x10 0x00 0x60 0x00 0x00 0xA8
11:06:49.421 -> Standard ID: 0x218       DLC: 8  Data: 0xCA 0x2B 0xDD 0x40 0x00 0x08 0xFF 0x00
11:06:49.421 -> Standard ID: 0x228       DLC: 8  Data: 0x00 0x00 0x00 0x7F 0xFF 0x00 0x00 0x80
11:06:49.421 -> Standard ID: 0x236       DLC: 8  Data: 0x0F 0xF2 0x10 0x00 0x80 0x00 0x00 0x38
11:06:49.421 -> Standard ID: 0x338       DLC: 8  Data: 0x00 0x00 0x00 0x00 0x00 0x00 0x05 0x82
11:06:49.421 -> Standard ID: 0x6F3       DLC: 8  Data: 0x01 0x00 0x00 0x00 0x00 0x00 0x00 0x09
11:06:49.421 -> Standard ID: 0x330       DLC: 8  Data: 0x08 0x00 0x00 0x00 0x00 0x00 0x00 0x7F
11:06:49.421 -> Standard ID: 0x356       DLC: 7  Data: 0x3F 0xFF 0x3F 0xFF 0x0B 0xB8 0x00
11:06:49.421 -> Standard ID: 0x424       DLC: 8  Data: 0x98 0x00 0x00 0x01 0xBA 0x9C 0x00 0x00
11:06:49.421 -> Standard ID: 0x236       DLC: 8  Data: 0x0F 0xF2 0x10 0x00 0xC0 0x00 0x00 0x58
11:06:49.421 -> Standard ID: 0x365       DLC: 8  Data: 0x03 0xFF 0xFF 0x04 0xE1 0x00 0x00 0xC8
11:06:49.421 -> Standard ID: 0x315       DLC: 8  Data: 0x65 0x00 0x00 0x00 0x00 0x00 0x00 0x00
11:06:49.421 -> Standard ID: 0x236       DLC: 8  Data: 0x0F 0xF2 0x10 0x00 0xE0 0x00 0x00 0x68
11:06:49.421 -> Standard ID: 0x338       DLC: 8  Data: 0x00 0x00 0x00 0x00 0x00 0x00 0x05 0xA3
11:06:49.421 -> Standard ID: 0x424       DLC: 8  Data: 0x98 0x00 0x00 0x01 0xBA 0x9C 0x00 0x00
11:06:49.421 -> Standard ID: 0x328       DLC: 8  Data: 0x00 0x00 0x80 0x00 0x00 0x00 0x00 0x00
11:06:49.421 -> Standard ID: 0x22A       DLC: 8  Data: 0x00 0x00 0x40 0x00 0x00 0x00 0x07 0xFF
11:06:49.421 -> Standard ID: 0x255       DLC: 8  Data: 0x3F 0xFF 0x3F 0xFF 0x3F 0xFF 0xFF 0xFF
11:06:49.421 -> Standard ID: 0x236       DLC: 8  Data: 0x0F 0xF2 0x10 0x00 0x20 0x00 0x00 0xC8
11:06:49.421 -> Standard ID: 0x22A       DLC: 8  Data: 0x00 0x18 0x80 0x00 0x00 0x00 0x07 0xFF
11:06:49.421 -> Standard ID: 0x308       DLC: 8  Data: 0x40 0x06 0x21 0x00 0x04 0x00 0x00 0x00
11:06:49.421 -> Standard ID: 0x2F1       DLC: 8  Data: 0x00 0x00 0x14 0x8F 0x00 0x00 0x00 0x00
11:06:49.421 -> Standard ID: 0x200       DLC: 8  Data: 0x00 0x9F 0x00 0x00 0x00 0x00 0x00 0x00
11:06:49.421 -> Standard ID: 0x312       DLC: 8  Data: 0x67 0xE5 0x07 0xD6 0x08 0x6E 0x07 0x9D
11:06:49.421 -> Standard ID: 0x2F1       DLC: 8  Data: 0x00 0x00 0x14 0x8F 0x00 0x00 0x00 0x00
11:06:49.421 -> Standard ID: 0x22A       DLC: 8  Data: 0x00 0x00 0x40 0x00 0x00 0x00 0x07 0xFF
11:06:49.421 -> Standard ID: 0x349       DLC: 8  Data: 0x00 0x00 0x00 0x00 0x00 0x00 0x00 0x00
11:06:49.421 -> Standard ID: 0x2F1       DLC: 8  Data: 0x00 0x00 0x14 0x8F 0x00 0x00 0x00 0x00
11:06:49.421 -> Standard ID: 0x236       DLC: 8  Data: 0x0F 0xF2 0x10 0x00 0x90 0x00 0x00 0x20
11:06:49.421 -> Standard ID: 0x218       DLC: 8  Data: 0x4A 0x2B 0xDD 0x40 0x00 0x88 0xFF 0x00
11:06:49.421 -> Standard ID: 0x2F1       DLC: 8  Data: 0x00 0x00 0x14 0x8F 0x00 0x00 0x00 0x00
11:06:49.421 -> Standard ID: 0x300       DLC: 8  Data: 0x00 0x00 0x00 0x00 0x9F 0xFF 0x80 0x00
11:06:49.421 -> Standard ID: 0x418       DLC: 8  Data: 0x50 0xFF 0x45 0x10 0x00 0x18 0x01 0x00
11:06:49.421 -> Standard ID: 0x330       DLC: 8  Data: 0x00 0x00 0x00 0x00 0x00 0x00 0x00 0x7E
11:06:49.421 -> Standard ID: 0x236       DLC: 8  Data: 0x0F 0xF2 0x10 0x00 0xD0 0x00 0x00 0x40
11:06:49.421 -> Standard ID: 0x185       DLC: 8  Data: 0x00 0x00 0x00 0x00 0x00 0x00 0x00 0x00
11:06:49.421 -> Standard ID: 0x425       DLC: 8  Data: 0x00 0x00 0x02 0x00 0x00 0x00 0x00 0x00
11:06:49.421 -> Standard ID: 0x236       DLC: 8  Data: 0x0F 0xF2 0x10 0x00 0xF0 0x00 0x00 0x70
11:06:49.421 -> Standard ID: 0x418       DLC: 8  Data: 0x50 0xFF 0x45 0x10 0x00 0x00 0x01 0x00
11:06:49.421 -> Standard ID: 0x210       DLC: 8  Data: 0x00 0x00 0x00 0x80 0xC0 0x00 0x00 0xFF
11:06:49.421 -> Standard ID: 0x236       DLC: 8  Data: 0x0F 0xF2 0x10 0x00 0x10 0x00 0x00 0xE0
11:06:49.421 -> Standard ID: 0x520       DLC: 8  Data: 0x00 0x00 0x00 0x00 0x00 0x00 0x00 0x00
11:06:49.421 -> Standard ID: 0x308       DLC: 8  Data: 0x40 0x06 0x5F 0x00 0x04 0x00 0x00 0x00
11:06:49.421 -> Standard ID: 0x363       DLC: 8  Data: 0x15 0x0D 0x11 0x6A 0x7C 0x9A 0x03 0x08
11:06:49.421 -> Standard ID: 0x418       DLC: 8  Data: 0x50 0xFF 0x45 0x10 0x00 0x18 0x01 0x00
11:06:49.421 -> Standard ID: 0x312       DLC: 8  Data: 0x47 0xE2 0x07 0xD8 0x08 0x72 0x07 0x9D
11:06:49.421 -> Standard ID: 0x200       DLC: 8  Data: 0x00 0x9F 0x00 0x00 0x00 0x00 0x00 0x00
11:06:49.421 -> Standard ID: 0x328       DLC: 8  Data: 0x00 0x00 0x80 0x00 0x00 0x00 0x00 0x00
11:06:49.421 -> Standard ID: 0x356       DLC: 7  Data: 0x3F 0xFF 0x3F 0xFF 0x0B 0xB8 0x00
11:06:49.421 -> Standard ID: 0x330       DLC: 8  Data: 0x08 0x00 0x00 0x00 0x00 0x00 0x00 0x7F
11:06:49.421 -> Standard ID: 0x22B       DLC: 8  Data: 0x00 0x00 0x00 0x00 0x00 0x00 0x00 0x00
11:06:49.769 -> Standard ID: 0x356       DLC: 7  Data: 0x3F 0xFF 0x3F 0xFF 0x0B 0xB8 0x00
11:06:49.769 -> Standard ID: 0x236       DLC: 8  Data: 0x0F 0xF2 0x10 0x00 0x90 0x00 0x00 0x20
11:06:49.769 -> Standard ID: 0x418       DLC: 8  Data: 0x50 0xFF 0x45 0x10 0x00 0x00 0x01 0x00
11:06:49.769 -> Standard ID: 0x356       DLC: 7  Data: 0x3F 0xFF 0x3F 0xFF 0x0B 0xB8 0x00
11:06:49.769 -> Standard ID: 0x236       DLC: 8  Data: 0x0F 0xF2 0x10 0x00 0xB0 0x00 0x00 0x10
11:06:49.769 -> Standard ID: 0x520       DLC: 8  Data: 0x00 0x00 0x00 0x00 0x00 0x00 0x00 0x00
11:06:49.769 -> Standard ID: 0x330       DLC: 8  Data: 0x10 0x00 0x00 0x00 0x00 0x00 0x00 0x7F
11:06:49.769 -> Standard ID: 0x363       DLC: 8  Data: 0x15 0x0D 0x11 0x6A 0x7C 0x70 0x03 0x08
11:06:49.769 -> Standard ID: 0x418       DLC: 8  Data: 0x50 0xFF 0x45 0x10 0x00 0x18 0x01 0x00
11:06:49.769 -> Standard ID: 0x608       DLC: 8  Data: 0x3E 0x3C 0x00 0x43 0x00 0x00 0xCF 0x00
11:06:49.769 -> Standard ID: 0x236       DLC: 8  Data: 0x0F 0xF2 0x10 0x00 0xF0 0x00 0x00 0x70
11:06:49.769 -> Standard ID: 0x236       DLC: 8  Data: 0x0F 0xF2 0x10 0x00 0x00 0x00 0x00 0xF8
11:06:49.769 -> Standard ID: 0x218       DLC: 8  Data: 0x4A 0x2B 0xDD 0x40 0x00 0x88 0xFF 0x00
11:06:49.769 -> Standard ID: 0x228       DLC: 8  Data: 0x00 0x00 0x00 0x7F 0xFF 0x00 0x00 0x80
11:06:49.769 -> Standard ID: 0x236       DLC: 8  Data: 0x0F 0xF2 0x10 0x00 0x20 0x00 0x00 0xC8
11:06:49.769 -> Standard ID: 0x338       DLC: 8  Data: 0x00 0x00 0x00 0x00 0x00 0x00 0x06 0x36
11:06:49.769 -> Standard ID: 0x315       DLC: 8  Data: 0x71 0x00 0x00 0x00 0x00 0x00 0x00 0x00
11:06:49.769 -> Standard ID: 0x236       DLC: 8  Data: 0x0F 0xF2 0x10 0x00 0x40 0x00 0x00 0x98
11:06:49.769 -> Standard ID: 0x365       DLC: 8  Data: 0x04 0xFF 0xFF 0x04 0xE1 0x00 0x00 0xC8
11:06:49.769 -> Standard ID: 0x212       DLC: 8  Data: 0x00 0x00 0x07 0xE3 0x28 0x00 0x20 0x9C
11:06:49.769 -> Standard ID: 0x236       DLC: 8  Data: 0x0F 0xF2 0x10 0x00 0x60 0x00 0x00 0xA8
11:06:49.769 -> Standard ID: 0x338       DLC: 8  Data: 0x00 0x00 0x00 0x00 0x00 0x00 0x06 0x4B
11:06:49.769 -> Standard ID: 0x008       DLC: 8  Data: 0x08 0x00 0x00 0x00 0x00 0x00 0x00 0x00
11:06:49.769 -> Standard ID: 0x2F1       DLC: 8  Data: 0x00 0x00 0x14 0x8F 0x00 0x00 0x00 0x00
11:06:49.769 -> Standard ID: 0x365       DLC: 8  Data: 0x04 0xFF 0xFF 0x04 0xE1 0x00 0x00 0xC8
11:06:49.769 -> Standard ID: 0x312       DLC: 8  Data: 0x67 0xE3 0x07 0xD9 0x08 0x77 0x07 0x9F
11:06:49.769 -> Standard ID: 0x2F1       DLC: 8  Data: 0x00 0x00 0x14 0x8F 0x00 0x00 0x00 0x00
11:06:49.769 -> Standard ID: 0x22A       DLC: 8  Data: 0x00 0x18 0x80 0x00 0x00 0x00 0x07 0xFF
11:06:49.769 -> Standard ID: 0x312       DLC: 8  Data: 0x07 0xE3 0x07 0xDA 0x08 0x77 0x07 0x9F
11:06:49.769 -> Standard ID: 0x2F1       DLC: 8  Data: 0x00 0x00 0x14 0x8F 0x00 0x00 0x00 0x00
11:06:49.769 -> Standard ID: 0x330       DLC: 8  Data: 0x08 0x00 0x00 0x00 0x00 0x00 0x00 0x7F
11:06:49.769 -> Standard ID: 0x312       DLC: 8  Data: 0x47 0xE1 0x07 0xD9 0x08 0x77 0x07 0x9F
11:06:49.769 -> Standard ID: 0x361       DLC: 8  Data: 0x92 0x92 0x79 0x23 0x27 0xA8 0xC6 0x43
11:06:49.769 -> Standard ID: 0x22A       DLC: 8  Data: 0x00 0x00 0x40 0x00 0x00 0x00 0x07 0xFF
11:06:49.769 -> Standard ID: 0x3AC       DLC: 8  Data: 0x00 0x2F 0x78 0x78 0x00 0x00 0x00 0x00
11:06:49.769 -> Standard ID: 0x2F1       DLC: 8  Data: 0x00 0x00 0x14 0x8F 0x00 0x00 0x00 0x00
11:06:49.769 -> Standard ID: 0x236       DLC: 8  Data: 0x0F 0xF2 0x10 0x00 0x10 0x00 0x00 0xE0
11:06:49.769 -> Standard ID: 0x218       DLC: 8  Data: 0x4A 0x2C 0xDD 0x40 0x00 0x08 0xFF 0x00
11:06:49.769 -> Standard ID: 0x330       DLC: 8  Data: 0x00 0x00 0x00 0x00 0x00 0x00 0x00 0x7E
11:06:49.769 -> Standard ID: 0x236       DLC: 8  Data: 0x0F 0xF2 0x10 0x00 0x30 0x00 0x00 0xD0
11:06:49.769 -> Standard ID: 0x265       DLC: 8  Data: 0x05 0x7C 0x02 0x7F 0xFF 0xFF 0x07 0xD4
11:06:49.769 -> Standard ID: 0x5FE       DLC: 8  Data: 0x41 0x12 0x15 0x11 0x01 0x60 0x06 0xC3
11:06:49.769 -> Standard ID: 0x236       DLC: 8  Data: 0x0F 0xF2 0x10 0x00 0x50 0x00 0x00 0x80
11:06:49.769 -> Standard ID: 0x418       DLC: 8  Data: 0x50 0xFF 0x45 0x10 0x00 0x18 0x01 0x00
11:06:49.769 -> Standard ID: 0x215       DLC: 8  Data: 0x00 0x00 0x00 0x00 0x00 0x00 0x04 0x00
11:06:49.769 -> Standard ID: 0x236       DLC: 8  Data: 0x0F 0xF2 0x10 0x00 0x70 0x00 0x00 0xB0
11:06:49.769 -> Standard ID: 0x418       DLC: 8  Data: 0x50 0xFF 0x45 0x10 0x00 0x00 0x01 0x00
11:06:49.769 -> Standard ID: 0x308       DLC: 8  Data: 0x40 0x06 0xD8 0x40 0x05 0x00 0x00 0x00
11:06:49.769 -> Standard ID: 0x236       DLC: 8  Data: 0x0F 0xF2 0x10 0x00 0x90 0x00 0x00 0x20
11:06:50.103 -> Standard ID: 0x520       DLC: 8  Data: 0x00 0x00 0x00 0x00 0x00 0x00 0x00 0x00
11:06:50.103 -> Standard ID: 0x308       DLC: 8  Data: 0x40 0x06 0xDE 0x00 0x04 0x00 0x00 0x00
11:06:50.103 -> Standard ID: 0x363       DLC: 8  Data: 0x15 0x0D 0x11 0x6A 0x7C 0xB0 0x03 0x08
11:06:50.103 -> Standard ID: 0x418       DLC: 8  Data: 0x50 0xFF 0x45 0x10 0x00 0x18 0x01 0x00
11:06:50.103 -> Standard ID: 0x356       DLC: 7  Data: 0x3F 0xFF 0x3F 0xFF 0x0B 0xB8 0x00
11:06:50.103 -> Standard ID: 0x330       DLC: 8  Data: 0x08 0x00 0x00 0x00 0x00 0x00 0x00 0x7F
11:06:50.103 -> Standard ID: 0x328       DLC: 8  Data: 0x00 0x00 0x80 0x00 0x00 0x00 0x00 0x00
11:06:50.103 -> Standard ID: 0x32B       DLC: 8  Data: 0x40 0x00 0x00 0x00 0x00 0x00 0x00 0x03
11:06:50.103 -> Standard ID: 0x330       DLC: 8  Data: 0x10 0x00 0x00 0x00 0x00 0x00 0x00 0x7F
11:06:50.103 -> Standard ID: 0x22B       DLC: 8  Data: 0x00 0x00 0x00 0x00 0x00 0x00 0x00 0x00
11:06:50.103 -> Standard ID: 0x356       DLC: 7  Data: 0x3F 0xFF 0x3F 0xFF 0x0B 0xB8 0x00
11:06:50.103 -> Standard ID: 0x236       DLC: 8  Data: 0x0F 0xF2 0x10 0x00 0x10 0x00 0x00 0xE0
11:06:50.103 -> Standard ID: 0x418       DLC: 8  Data: 0x50 0xFF 0x45 0x10 0x00 0x00 0x01 0x00
11:06:50.103 -> Standard ID: 0x390       DLC: 8  Data: 0x08 0x00 0x00 0x00 0x00 0x00 0x00 0x00
11:06:50.103 -> Standard ID: 0x328       DLC: 8  Data: 0x00 0x00 0x80 0x00 0x00 0x00 0x00 0x00
11:06:50.103 -> Standard ID: 0x520       DLC: 8  Data: 0x00 0x00 0x00 0x00 0x00 0x00 0x00 0x00
11:06:50.103 -> Standard ID: 0x312       DLC: 8  Data: 0x47 0xDE 0x07 0xDE 0x08 0x7A 0x07 0xA0
11:06:50.103 -> Standard ID: 0x363       DLC: 8  Data: 0x15 0x0D 0x11 0x6A 0x7C 0x5A 0x03 0x08
11:06:50.103 -> Standard ID: 0x418       DLC: 8  Data: 0x50 0xFF 0x45 0x10 0x00 0x18 0x01 0x00
11:06:50.103 -> Standard ID: 0x608       DLC: 8  Data: 0x3E 0x3C 0x00 0x41 0x00 0x00 0xFB 0x00
11:06:50.103 -> Standard ID: 0x228       DLC: 8  Data: 0x00 0x00 0x00 0x7F 0xFF 0x00 0x00 0x80
11:06:50.103 -> Standard ID: 0x236       DLC: 8  Data: 0x0F 0xF2 0x10 0x00 0x80 0x00 0x00 0x38
11:06:50.103 -> Standard ID: 0x218       DLC: 8  Data: 0x4A 0x2C 0xDD 0x40 0x00 0x08 0xFF 0x00
11:06:50.103 -> Standard ID: 0x212       DLC: 8  Data: 0x00 0x00 0xC7 0xDE 0xA7 0xFD 0x20 0x9C
11:06:50.103 -> Standard ID: 0x236       DLC: 8  Data: 0x0F 0xF2 0x10 0x00 0xA0 0x00 0x00 0x08
11:06:50.103 -> Standard ID: 0x338       DLC: 8  Data: 0x00 0x00 0x00 0x00 0x00 0x00 0x06 0xB6
11:06:50.103 -> Standard ID: 0x255       DLC: 8  Data: 0x3F 0xFF 0x3F 0xFF 0x3F 0xFF 0xFF 0xFF
11:06:50.103 -> Standard ID: 0x2F1       DLC: 8  Data: 0x00 0x00 0x14 0x8F 0x00 0x00 0x00 0x00
11:06:50.103 -> Standard ID: 0x365       DLC: 8  Data: 0x04 0xFF 0xFF 0x04 0xE1 0x00 0x00 0xC8
11:06:50.103 -> Standard ID: 0x311       DLC: 8  Data: 0x00 0x76 0xBC 0x00 0x00 0x78 0x00 0x00
11:06:50.103 -> Standard ID: 0x300       DLC: 8  Data: 0x00 0x80 0x00 0x00 0x1F 0xFF 0x80 0x00
11:06:50.103 -> Standard ID: 0x338       DLC: 8  Data: 0x00 0x00 0x00 0x00 0x00 0x00 0x06 0xBD
11:06:50.103 -> Standard ID: 0x424       DLC: 8  Data: 0x98 0x00 0x00 0x01 0xBA 0x9C 0x00 0x00
11:06:50.103 -> Standard ID: 0x2F1       DLC: 8  Data: 0x00 0x00 0x14 0x8F 0x00 0x00 0x00 0x00
11:06:50.103 -> Standard ID: 0x22A       DLC: 8  Data: 0x00 0x00 0x40 0x00 0x00 0x00 0x07 0xFF
11:06:50.103 -> Standard ID: 0x6FA       DLC: 8  Data: 0x00 0x20 0x20 0x20 0x20 0x20 0x42 0x32
11:06:50.103 -> Standard ID: 0x2F1       DLC: 8  Data: 0x00 0x00 0x14 0x8F 0x00 0x00 0x00 0x00
11:06:50.103 -> Standard ID: 0x22A       DLC: 8  Data: 0x00 0x18 0x80 0x00 0x00 0x00 0x07 0xFF
11:06:50.103 -> Standard ID: 0x328       DLC: 8  Data: 0x00 0x00 0x80 0x00 0x00 0x00 0x00 0x00
11:06:50.103 -> Standard ID: 0x2F1       DLC: 8  Data: 0x00 0x00 0x14 0x8F 0x00 0x00 0x00 0x00
11:06:50.103 -> Standard ID: 0x22A       DLC: 8  Data: 0x00 0x18 0x80 0x00 0x00 0x00 0x07 0xFF
11:06:50.103 -> Standard ID: 0x7BC       DLC: 8  Data: 0x0E 0x00 0x00 0x00 0x00 0x00 0x00 0x00
11:06:50.103 -> Standard ID: 0x361       DLC: 8  Data: 0x92 0x92 0x79 0x23 0x37 0xA8 0xC6 0x43
11:06:50.103 -> Standard ID: 0x22A       DLC: 8  Data: 0x00 0x00 0x40 0x00 0x00 0x00 0x07 0xFF
11:06:50.103 -> Standard ID: 0x7BC       DLC: 8  Data: 0x0F 0x00 0x00 0x00 0x00 0x00 0x00 0x00
11:06:50.103 -> Standard ID: 0x2F1       DLC: 8  Data: 0x00 0x00 0x14 0x8F 0x00 0x00 0x00 0x00
11:06:50.103 -> Standard ID: 0x214       DLC: 8  Data: 0x00 0x00 0x00 0x00 0x00 0x00 0x03 0x00
